Time [s],Channel 0,Channel 1
0.000000000,0,1
0.000001146,0,0
0.000001548,1,0
0.000007028,0,0
0.000007428,0,1
0.000012908,0,0
0.000013308,1,0
0.000018788,0,0
0.000019188,0,1
0.000024668,0,0
0.000025068,1,0
0.000030548,0,0
0.000030948,0,1
0.000036428,0,0
0.000036828,1,0
0.000042308,0,0
0.000042708,0,1
0.000048188,0,0
0.000048588,1,0
0.000054068,0,0
0.000054470,0,1
0.000059948,0,0
0.000060348,1,0
0.000065828,0,0
0.000066230,0,1
0.000071708,0,0
0.000072110,1,0
0.000077588,0,0
0.000077990,0,1
0.000083470,0,0
0.000083870,1,0
0.000089350,0,0
0.000089750,0,1
0.000095230,0,0
0.000095630,1,0
0.000101110,0,0
0.000101510,0,1
0.000106990,0,0
0.000107390,1,0
0.000112870,0,0
0.000113270,0,1
0.000118750,0,0
0.000119150,1,0
0.000124630,0,0
0.000125032,0,1
0.000130510,0,0
0.000130910,1,0
0.000136390,0,0
0.000136792,0,1
0.000142270,0,0
0.000142672,1,0
0.000148150,0,0
0.000148552,0,1
0.000154030,0,0
0.000154430,1,0
0.000159912,0,0
0.000160312,0,1
0.000165792,0,0
0.000166192,1,0
0.000171672,0,0
0.000172072,0,1
0.000177552,0,0
0.000177952,1,0
0.000183432,0,0
0.000183832,0,1
0.000189312,0,0
0.000189712,1,0
0.000195192,0,0
0.000195592,0,1
0.000201072,0,0
0.000201472,1,0
0.000206952,0,0
0.000207354,0,1
0.000212832,0,0
0.000213232,1,0
0.000218712,0,0
0.000219114,0,1
0.000224592,0,0
0.000224992,1,0
0.000230472,0,0
0.000230874,0,1
0.000236354,0,0
0.000236754,1,0
0.000242234,0,0
0.000242634,0,1
0.000248114,0,0
0.000248514,1,0
0.000253994,0,0
0.000254394,0,1
0.000259874,0,0
0.000260274,1,0
0.000265754,0,0
0.000266154,0,1
0.000271634,0,0
0.000272034,1,0
0.000277514,0,0
0.000277914,0,1
0.000283394,0,0
0.000283794,1,0
0.000289274,0,0
0.000289676,0,1
0.000295154,0,0
0.000295554,1,0
0.000301034,0,0
0.000301436,0,1
0.000306914,0,0
0.000307316,1,0
0.000312794,0,0
0.000313196,0,1
0.000318676,0,0
0.000319076,1,0
0.000324556,0,0
0.000324956,0,1
0.000330436,0,0
0.000330836,1,0
0.000336316,0,0
0.000336716,0,1
0.000342196,0,0
0.000342596,1,0
0.000348076,0,0
0.000348476,0,1
0.000353956,0,0
0.000354356,1,0
0.000359836,0,0
0.000360236,0,1
0.000365716,0,0
0.000366116,1,0
0.000371596,0,0
0.000371998,0,1
0.000377476,0,0
0.000377876,1,0
0.000383356,0,0
0.000383758,0,1
0.000389238,0,0
0.000389638,1,0
0.000395118,0,0
0.000395518,0,1
0.000400998,0,0
0.000401398,1,0
0.000406878,0,0
0.000407278,0,1
0.000412758,0,0
0.000413158,1,0
0.000418638,0,0
0.000419038,0,1
0.000424518,0,0
0.000424918,1,0
0.000430398,0,0
0.000430798,0,1
0.000436278,0,0
0.000436678,1,0
0.000442158,0,0
0.000442560,0,1
0.000448038,0,0
0.000448438,1,0
0.000453918,0,0
0.000454320,0,1
0.000459798,0,0
0.000460198,1,0
0.000465678,0,0
0.000466080,0,1
0.000471558,0,0
0.000471960,1,0
0.000477440,0,0
0.000477840,0,1
0.000483320,0,0
0.000483720,1,0
0.000489200,0,0
0.000489600,0,1
0.000495080,0,0
0.000495480,1,0
0.000500960,0,0
0.000501360,0,1
0.000506840,0,0
0.000507240,1,0
0.000512720,0,0
0.000513120,0,1
0.000518600,0,0
0.000519000,1,0
0.000524480,0,0
0.000524882,0,1
0.000530360,0,0
0.000530760,1,0
0.000536240,0,0
0.000536642,0,1
0.000542122,0,0
0.000542522,1,0
0.000548000,0,0
0.000548402,0,1
0.000553880,0,0
0.000554282,1,0
0.000559760,0,0
0.000560162,0,1
0.000565642,0,0
0.000566042,1,0
0.000571522,0,0
0.000571922,0,1
0.000577402,0,0
0.000577802,1,0
0.000583282,0,0
0.000583682,0,1
0.000589162,0,0
0.000589562,1,0
0.000595042,0,0
0.000595442,0,1
0.000600922,0,0
0.000601322,1,0
0.000606802,0,0
0.000607202,0,1
0.000612682,0,0
0.000613082,1,0
0.000618562,0,0
0.000618964,0,1
0.000624444,0,0
0.000624844,1,0
0.000630324,0,0
0.000630724,0,1
0.000636204,0,0
0.000636604,1,0
0.000642084,0,0
0.000642484,0,1
0.000647964,0,0
0.000648364,1,0
0.000653844,0,0
0.000654244,0,1
0.000659724,0,0
0.000660124,1,0
0.000665604,0,0
0.000666004,0,1
0.000671484,0,0
0.000671884,1,0
0.000677364,0,0
0.000677766,0,1
0.000683244,0,0
0.000683644,1,0
0.000689124,0,0
0.000689526,0,1
0.000695006,0,0
0.000695406,1,0
0.000700886,0,0
0.000701286,0,1
0.000706766,0,0
0.000707166,1,0
0.000712646,0,0
0.000713046,0,1
0.000718526,0,0
0.000718926,1,0
0.000724406,0,0
0.000724806,0,1
0.000730286,0,0
0.000730686,1,0
0.000736166,0,0
0.000736566,0,1
0.000742046,0,0
0.000742446,1,0
0.000747926,0,0
0.000748326,0,1
0.000753806,0,0
0.000754206,1,0
0.000759686,0,0
0.000760088,0,1
0.000765566,0,0
0.000765966,1,0
0.000771446,0,0
0.000771848,0,1
0.000777326,0,0
0.000777728,1,0
0.000783206,0,0
0.000783608,0,1
0.000789088,0,0
0.000789488,1,0
0.000794968,0,0
0.000795368,0,1
0.000800848,0,0
0.000801248,1,0
0.000806728,0,0
0.000807128,0,1
0.000812608,0,0
0.000813008,1,0
0.000818488,0,0
0.000818888,0,1
0.000824368,0,0
0.000824768,1,0
0.000830248,0,0
0.000830648,0,1
0.000836128,0,0
0.000836528,1,0
0.000842008,0,0
0.000842408,0,1
0.000847888,0,0
0.000848288,1,0
0.000853768,0,0
0.000854170,0,1
0.000859650,0,0
0.000860050,1,0
0.000865530,0,0
0.000865930,0,1
0.000871410,0,0
0.000871810,1,0
0.000877290,0,0
0.000877690,0,1
0.000883170,0,0
0.000883570,1,0
0.000889050,0,0
0.000889450,0,1
0.000894930,0,0
0.000895330,1,0
0.000900810,0,0
0.000901210,0,1
0.000906690,0,0
0.000907090,1,0
0.000912570,0,0
0.000912970,0,1
0.000918450,0,0
0.000918850,1,0
0.000924330,0,0
0.000924730,0,1
0.000930210,0,0
0.000930610,1,0
0.000936090,0,0
0.000936492,0,1
0.000941972,0,0
0.000942372,1,0
0.000947850,0,0
0.000948252,0,1
0.000953732,0,0
0.000954132,1,0
0.000959612,0,0
0.000960012,0,1
0.000965492,0,0
0.000965892,1,0
0.000971372,0,0
0.000971772,0,1
0.000977252,0,0
0.000977652,1,0
0.000983132,0,0
0.000983532,0,1
0.000989012,0,0
0.000989412,1,0
0.000994892,0,0
0.000995294,0,1
0.001000772,0,0
0.001001172,1,0
0.001006652,0,0
0.001007054,0,1
0.001012532,0,0
0.001012932,1,0
0.001018414,0,0
0.001018814,0,1
0.001024294,0,0
0.001024694,1,0
0.001030174,0,0
0.001030574,0,1
0.001036054,0,0
0.001036454,1,0
0.001041934,0,0
0.001042334,0,1
0.001047814,0,0
0.001048214,1,0
0.001053694,0,0
0.001054094,0,1
0.001059574,0,0
0.001059974,1,0
0.001065454,0,0
0.001065854,0,1
0.001071334,0,0
0.001071734,1,0
0.001077214,0,0
0.001077614,0,1
0.001083094,0,0
0.001083494,1,0
0.001088974,0,0
0.001089376,0,1
0.001094854,0,0
0.001095256,1,0
0.001100736,0,0
0.001101136,0,1
0.001106616,0,0
0.001107016,1,0
0.001112496,0,0
0.001112896,0,1
0.001118376,0,0
0.001118776,1,0
0.001124256,0,0
0.001124656,0,1
0.001130136,0,0
0.001130536,1,0
0.001136016,0,0
0.001136416,0,1
0.001141896,0,0
0.001142296,1,0
0.001147776,0,0
0.001148176,0,1
0.001153656,0,0
0.001154056,1,0
0.001159536,0,0
0.001159938,0,1
0.001165418,0,0
0.001165818,1,0
0.001171298,0,0
0.001171698,0,1
0.001177178,0,0
0.001177578,1,0
0.001183058,0,0
0.001183458,0,1
0.001188938,0,0
0.001189338,1,0
0.001194818,0,0
0.001195218,0,1
0.001200698,0,0
0.001201098,1,0
0.001206578,0,0
0.001206978,0,1
0.001212458,0,0
0.001212858,1,0
0.001218338,0,0
0.001218738,0,1
0.001224218,0,0
0.001224618,1,0
0.001230098,0,0
0.001230498,0,1
0.001235978,0,0
0.001236378,1,0
0.001241858,0,0
0.001242258,0,1
0.001247738,0,0
0.001248138,1,0
0.001253618,0,0
0.001254020,0,1
0.001259500,0,0
0.001259900,1,0
0.001265380,0,0
0.001265780,0,1
0.001271260,0,0
0.001271660,1,0
0.001277140,0,0
0.001277540,0,1
0.001283020,0,0
0.001283420,1,0
0.001288900,0,0
0.001289300,0,1
0.001294780,0,0
0.001295180,1,0
0.001300660,0,0
0.001301060,0,1
0.001306540,0,0
0.001306940,1,0
0.001312420,0,0
0.001312822,0,1
0.001318300,0,0
0.001318700,1,0
0.001324180,0,0
0.001324582,0,1
0.001330060,0,0
0.001330460,1,0
0.001335940,0,0
0.001336342,0,1
0.001341822,0,0
0.001342222,1,0
0.001347700,0,0
0.001348102,0,1
0.001353582,0,0
0.001353982,1,0
0.001359462,0,0
0.001359862,0,1
0.001365342,0,0
0.001365742,1,0
0.001371222,0,0
0.001371622,0,1
0.001377102,0,0
0.001377502,1,0
0.001382982,0,0
0.001383382,0,1
0.001388862,0,0
0.001389262,1,0
0.001394742,0,0
0.001395144,0,1
0.001400622,0,0
0.001401022,1,0
0.001406502,0,0
0.001406904,0,1
0.001412382,0,0
0.001412782,1,0
0.001418262,0,0
0.001418664,0,1
0.001424144,0,0
0.001424544,1,0
0.001430024,0,0
0.001430424,0,1
0.001435904,0,0
0.001436304,1,0
0.001441784,0,0
0.001442184,0,1
0.001447664,0,0
0.001448064,1,0
0.001453544,0,0
0.001453944,0,1
0.001459424,0,0
0.001459824,1,0
0.001465304,0,0
0.001465704,0,1
0.001471184,0,0
0.001471584,1,0
0.001477064,0,0
0.001477464,0,1
0.001482944,0,0
0.001483344,1,0
0.001488824,0,0
0.001489226,0,1
0.001494706,0,0
0.001495106,1,0
0.001500584,0,0
0.001500986,0,1
0.001506464,0,0
0.001506866,1,0
0.001512346,0,0
0.001512746,0,1
0.001518226,0,0
0.001518626,1,0
0.001524106,0,0
0.001524506,0,1
0.001529986,0,0
0.001530386,1,0
0.001535866,0,0
0.001536266,0,1
0.001541746,0,0
0.001542146,1,0
0.001547626,0,0
0.001548026,0,1
0.001553506,0,0
0.001553906,1,0
0.001559386,0,0
0.001559788,0,1
0.001565266,0,0
0.001565666,1,0
0.001571146,0,0
0.001571548,0,1
0.001577026,0,0
0.001577426,1,0
0.001582908,0,0
0.001583308,0,1
0.001588788,0,0
0.001589188,1,0
0.001594668,0,0
0.001595068,0,1
0.001600548,0,0
0.001600948,1,0
0.001606428,0,0
0.001606828,0,1
0.001612308,0,0
0.001612708,1,0
0.001618188,0,0
0.001618588,0,1
0.001624068,0,0
0.001624468,1,0
0.001629948,0,0
0.001630348,0,1
0.001635828,0,0
0.001636228,1,0
0.001641708,0,0
0.001642110,0,1
0.001647588,0,0
0.001647988,1,0
0.001653468,0,0
0.001653870,0,1
0.001659350,0,0
0.001659750,1,0
0.001665230,0,0
0.001665630,0,1
0.001671110,0,0
0.001671510,1,0
0.001676990,0,0
0.001677390,0,1
0.001682870,0,0
0.001683270,1,0
0.001688750,0,0
0.001689150,0,1
0.001694630,0,0
0.001695030,1,0
0.001700510,0,0
0.001700910,0,1
0.001706390,0,0
0.001706790,1,0
0.001712270,0,0
0.001712672,0,1
0.001718150,0,0
0.001718550,1,0
0.001724030,0,0
0.001724432,0,1
0.001729910,0,0
0.001730312,1,0
0.001735792,0,0
0.001736192,0,1
0.001741672,0,0
0.001742072,1,0
0.001747552,0,0
0.001747952,0,1
0.001753432,0,0
0.001753832,1,0
0.001759312,0,0
0.001759712,0,1
0.001765192,0,0
0.001765592,1,0
0.001771072,0,0
0.001771472,0,1
0.001776952,0,0
0.001777352,1,0
0.001782832,0,0
0.001783232,0,1
0.001788712,0,0
0.001789112,1,0
0.001794592,0,0
0.001794994,0,1
0.001800472,0,0
0.001800872,1,0
0.001806352,0,0
0.001806754,0,1
0.001812232,0,0
0.001812632,1,0
0.001818114,0,0
0.001818514,0,1
0.001823994,0,0
0.001824394,1,0
0.001829874,0,0
0.001830274,0,1
0.001835754,0,0
0.001836154,1,0
0.001841634,0,0
0.001842034,0,1
0.001847514,0,0
0.001847914,1,0
0.001853394,0,0
0.001853794,0,1
0.001859274,0,0
0.001859674,1,0
0.001865154,0,0
0.001865554,0,1
0.001871034,0,0
0.001871434,1,0
0.001876914,0,0
0.001877316,0,1
0.001882794,0,0
0.001883194,1,0
0.001888674,0,0
0.001889076,0,1
0.001894556,0,0
0.001894956,1,0
0.001900436,0,0
0.001900836,0,1
0.001906316,0,0
0.001906716,1,0
0.001912196,0,0
0.001912596,0,1
0.001918076,0,0
0.001918476,1,0
0.001923956,0,0
0.001924356,0,1
0.001929836,0,0
0.001930236,1,0
0.001935716,0,0
0.001936116,0,1
0.001941596,0,0
0.001941996,1,0
0.001947476,0,0
0.001947876,0,1
0.001953356,0,0
0.001953756,1,0
0.001959236,0,0
0.001959638,0,1
0.001965118,0,0
0.001965518,1,0
0.001970998,0,0
0.001971398,0,1
0.001976878,0,0
0.001977278,1,0
0.001982758,0,0
0.001983158,0,1
0.001988638,0,0
0.001989038,1,0
0.001994518,0,0
0.001994918,0,1
0.002000398,0,0
0.002000798,1,0
0.002006278,0,0
0.002006678,0,1
0.002012158,0,0
0.002012558,1,0
0.002018038,0,0
0.002018438,0,1
0.002023918,0,0
0.002024318,1,0
0.002029798,0,0
0.002030200,0,1
0.002035678,0,0
0.002036078,1,0
0.002041558,0,0
0.002041960,0,1
0.002047438,0,0
0.002047838,1,0
0.002053318,0,0
0.002053720,0,1
0.002059198,0,0
0.002059598,1,0
0.002065078,0,0
0.002065480,0,1
0.002070960,0,0
0.002071360,1,0
0.002076840,0,0
0.002077240,0,1
0.002082720,0,0
0.002083120,1,0
0.002088600,0,0
0.002089000,0,1
0.002094480,0,0
0.002094880,1,0
0.002100360,0,0
0.002100762,0,1
0.002106240,0,0
0.002106640,1,0
0.002112120,0,0
0.002112522,0,1
0.002118002,0,0
0.002118402,1,0
0.002123882,0,0
0.002124282,0,1
0.002129762,0,0
0.002130162,1,0
0.002135642,0,0
0.002136042,0,1
0.002141522,0,0
0.002141922,1,0
0.002147402,0,0
0.002147802,0,1
0.002153282,0,0
0.002153682,1,0
0.002159162,0,0
0.002159562,0,1
0.002165042,0,0
0.002165442,1,0
0.002170922,0,0
0.002171322,0,1
0.002176802,0,0
0.002177202,1,0
0.002182682,0,0
0.002183082,0,1
0.002188562,0,0
0.002188962,1,0
0.002194442,0,0
0.002194842,0,1
0.002200322,0,0
0.002200722,1,0
0.002206202,0,0
0.002206604,0,1
0.002212082,0,0
0.002212482,1,0
0.002217962,0,0
0.002218364,0,1
0.002223842,0,0
0.002224244,1,0
0.002229724,0,0
0.002230124,0,1
0.002235604,0,0
0.002236004,1,0
0.002241484,0,0
0.002241884,0,1
0.002247364,0,0
0.002247764,1,0
0.002253244,0,0
0.002253644,0,1
0.002259124,0,0
0.002259524,1,0
0.002265004,0,0
0.002265404,0,1
0.002270884,0,0
0.002271284,1,0
0.002276764,0,0
0.002277166,0,1
0.002282646,0,0
0.002283046,1,0
0.002288526,0,0
0.002288926,0,1
0.002294406,0,0
0.002294806,1,0
0.002300286,0,0
0.002300686,0,1
0.002306166,0,0
0.002306566,1,0
0.002312046,0,0
0.002312446,0,1
0.002317926,0,0
0.002318326,1,0
0.002323806,0,0
0.002324206,0,1
0.002329686,0,0
0.002330086,1,0
0.002335566,0,0
0.002335966,0,1
0.002341446,0,0
0.002341846,1,0
0.002347326,0,0
0.002347728,0,1
0.002353206,0,0
0.002353606,1,0
0.002359086,0,0
0.002359488,0,1
0.002364966,0,0
0.002365366,1,0
0.002370846,0,0
0.002371248,0,1
0.002376728,0,0
0.002377128,1,0
0.002382608,0,0
0.002383008,0,1
0.002388488,0,0
0.002388888,1,0
0.002394368,0,0
0.002394768,0,1
0.002400248,0,0
0.002400648,1,0
0.002406128,0,0
0.002406528,0,1
0.002412008,0,0
0.002412408,1,0
0.002417888,0,0
0.002418290,0,1
0.002423768,0,0
0.002424168,1,0
0.002429648,0,0
0.002430050,0,1
0.002435528,0,0
0.002435928,1,0
0.002441408,0,0
0.002441810,0,1
0.002447290,0,0
0.002447690,1,0
0.002453168,0,0
0.002453570,0,1
0.002459050,0,0
0.002459450,1,0
0.002464930,0,0
0.002465330,0,1
0.002470810,0,0
0.002471210,1,0
0.002476690,0,0
0.002477090,0,1
0.002482570,0,0
0.002482970,1,0
0.002488450,0,0
0.002488850,0,1
0.002494330,0,0
0.002494730,1,0
0.002500210,0,0
0.002500610,0,1
0.002506090,0,0
0.002506490,1,0
0.002511970,0,0
0.002512372,0,1
0.002517850,0,0
0.002518250,1,0
0.002523730,0,0
0.002524132,0,1
0.002529612,0,0
0.002530012,1,0
0.002535492,0,0
0.002535892,0,1
0.002541372,0,0
0.002541772,1,0
0.002547252,0,0
0.002547652,0,1
0.002553132,0,0
0.002553532,1,0
0.002559012,0,0
0.002559412,0,1
0.002564892,0,0
0.002565292,1,0
0.002570772,0,0
0.002571172,0,1
0.002576652,0,0
0.002577052,1,0
0.002582532,0,0
0.002582932,0,1
0.002588412,0,0
0.002588812,1,0
0.002594292,0,0
0.002594694,0,1
0.002600172,0,0
0.002600572,1,0
0.002606052,0,0
0.002606454,0,1
0.002611934,0,0
0.002612334,1,0
0.002617812,0,0
0.002618214,0,1
0.002623694,0,0
0.002624094,1,0
0.002629574,0,0
0.002629974,0,1
0.002635454,0,0
0.002635854,1,0
0.002641334,0,0
0.002641734,0,1
0.002647214,0,0
0.002647614,1,0
0.002653094,0,0
0.002653494,0,1
0.002658974,0,0
0.002659374,1,0
0.002664854,0,0
0.002665256,0,1
0.002670734,0,0
0.002671136,1,0
0.002676616,0,0
0.002677016,0,1
0.002682496,0,0
0.002682896,1,0
0.002688376,0,0
0.002688776,0,1
0.002694256,0,0
0.002694656,1,0
0.002700136,0,0
0.002700536,0,1
0.002706016,0,0
0.002706416,1,0
0.002711896,0,0
0.002712296,0,1
0.002717776,0,0
0.002718176,1,0
0.002723656,0,0
0.002724056,0,1
0.002729536,0,0
0.002729936,1,0
0.002735416,0,0
0.002735816,0,1
0.002741296,0,0
0.002741696,1,0
0.002747176,0,0
0.002747578,0,1
0.002753056,0,0
0.002753458,1,0
0.002758936,0,0
0.002759338,0,1
0.002764818,0,0
0.002765218,1,0
0.002770696,0,0
0.002771098,0,1
0.002776578,0,0
0.002776978,1,0
0.002782458,0,0
0.002782858,0,1
0.002788338,0,0
0.002788738,1,0
0.002794218,0,0
0.002794618,0,1
0.002800098,0,0
0.002800498,1,0
0.002805978,0,0
0.002806378,0,1
0.002811858,0,0
0.002812258,1,0
0.002817738,0,0
0.002818138,0,1
0.002823618,0,0
0.002824018,1,0
0.002829498,0,0
0.002829900,0,1
0.002835380,0,0
0.002835780,1,0
0.002841260,0,0
0.002841660,0,1
0.002847140,0,0
0.002847540,1,0
0.002853020,0,0
0.002853420,0,1
0.002858900,0,0
0.002859300,1,0
0.002864780,0,0
0.002865180,0,1
0.002870660,0,0
0.002871060,1,0
0.002876540,0,0
0.002876940,0,1
0.002882420,0,0
0.002882820,1,0
0.002888300,0,0
0.002888700,0,1
0.002894180,0,0
0.002894580,1,0
0.002900060,0,0
0.002900460,0,1
0.002905940,0,0
0.002906340,1,0
0.002911820,0,0
0.002912222,0,1
0.002917702,0,0
0.002918102,1,0
0.002923580,0,0
0.002923982,0,1
0.002929462,0,0
0.002929862,1,0
0.002935340,0,0
0.002935742,0,1
0.002941222,0,0
0.002941622,1,0
0.002947102,0,0
0.002947502,0,1
0.002952982,0,0
0.002953382,1,0
0.002958862,0,0
0.002959262,0,1
0.002964742,0,0
0.002965142,1,0
0.002970622,0,0
0.002971022,0,1
0.002976502,0,0
0.002976902,1,0
0.002982382,0,0
0.002982784,0,1
0.002988262,0,0
0.002988662,1,0
0.002994142,0,0
0.002994544,0,1
0.003000024,0,0
0.003000424,1,0
0.003005904,0,0
0.003006304,0,1
0.003011784,0,0
0.003012184,1,0
0.003017664,0,0
0.003018064,0,1
0.003023544,0,0
0.003023944,1,0
0.003029424,0,0
0.003029824,0,1
0.003035304,0,0
0.003035704,1,0
0.003041184,0,0
0.003041584,0,1
0.003047064,0,0
0.003047464,1,0
0.003052944,0,0
0.003053344,0,1
0.003058824,0,0
0.003059224,1,0
0.003064704,0,0
0.003065106,0,1
0.003070584,0,0
0.003070984,1,0
0.003076464,0,0
0.003076866,0,1
0.003082344,0,0
0.003082744,1,0
0.003088224,0,0
0.003088626,0,1
0.003094106,0,0
0.003094506,1,0
0.003099986,0,0
0.003100386,0,1
0.003105866,0,0
0.003106266,1,0
0.003111746,0,0
0.003112146,0,1
0.003117626,0,0
0.003118026,1,0
0.003123506,0,0
0.003123906,0,1
0.003129386,0,0
0.003129786,1,0
0.003135266,0,0
0.003135666,0,1
0.003141146,0,0
0.003141546,1,0
0.003147026,0,0
0.003147428,0,1
0.003152908,0,0
0.003153308,1,0
0.003158788,0,0
0.003159188,0,1
0.003164668,0,0
0.003165068,1,0
0.003170548,0,0
0.003170948,0,1
0.003176428,0,0
0.003176828,1,0
0.003182308,0,0
0.003182708,0,1
0.003188188,0,0
0.003188588,1,0
0.003194068,0,0
0.003194468,0,1
0.003199948,0,0
0.003200348,1,0
0.003205828,0,0
0.003206228,0,1
0.003211708,0,0
0.003212108,1,0
0.003217588,0,0
0.003217990,0,1
0.003223470,0,0
0.003223870,1,0
0.003229348,0,0
0.003229750,0,1
0.003235230,0,0
0.003235630,1,0
0.003241110,0,0
0.003241510,0,1
0.003246988,0,0
0.003247390,1,0
0.003252868,0,0
0.003253270,0,1
0.003258750,0,0
0.003259150,1,0
0.003264630,0,0
0.003265030,0,1
0.003270510,0,0
0.003270910,1,0
0.003276390,0,0
0.003276790,0,1
0.003282270,0,0
0.003282670,1,0
0.003288150,0,0
0.003288550,0,1
0.003294030,0,0
0.003294430,1,0
0.003299910,0,0
0.003300312,0,1
0.003305790,0,0
0.003306190,1,0
0.003311670,0,0
0.003312072,0,1
0.003317552,0,0
0.003317952,1,0
0.003323432,0,0
0.003323832,0,1
0.003329312,0,0
0.003329712,1,0
0.003335192,0,0
0.003335592,0,1
0.003341072,0,0
0.003341472,1,0
0.003346952,0,0
0.003347352,0,1
0.003352832,0,0
0.003353232,1,0
0.003358712,0,0
0.003359112,0,1
0.003364592,0,0
0.003364992,1,0
0.003370472,0,0
0.003370872,0,1
0.003376352,0,0
0.003376752,1,0
0.003382232,0,0
0.003382634,0,1
0.003388112,0,0
0.003388512,1,0
0.003393992,0,0
0.003394394,0,1
0.003399872,0,0
0.003400274,1,0
0.003405754,0,0
0.003406154,0,1
0.003411634,0,0
0.003412034,1,0
0.003417514,0,0
0.003417914,0,1
0.003423394,0,0
0.003423794,1,0
0.003429274,0,0
0.003429674,0,1
0.003435154,0,0
0.003435554,1,0
0.003441034,0,0
0.003441434,0,1
0.003446914,0,0
0.003447314,1,0
0.003452794,0,0
0.003453196,0,1
0.003458674,0,0
0.003459074,1,0
0.003464554,0,0
0.003464956,0,1
0.003470434,0,0
0.003470834,1,0
0.003476314,0,0
0.003476716,0,1
0.003482196,0,0
0.003482596,1,0
0.003488076,0,0
0.003488476,0,1
0.003493956,0,0
0.003494356,1,0
0.003499836,0,0
0.003500236,0,1
0.003505716,0,0
0.003506116,1,0
0.003511596,0,0
0.003511996,0,1
0.003517476,0,0
0.003517876,1,0
0.003523356,0,0
0.003523756,0,1
0.003529236,0,0
0.003529636,1,0
0.003535116,0,0
0.003535518,0,1
0.003540996,0,0
0.003541396,1,0
0.003546876,0,0
0.003547278,0,1
0.003552756,0,0
0.003553156,1,0
0.003558636,0,0
0.003559038,0,1
0.003564516,0,0
0.003564918,1,0
0.003570398,0,0
0.003570798,0,1
0.003576278,0,0
0.003576678,1,0
0.003582158,0,0
0.003582558,0,1
0.003588038,0,0
0.003588438,1,0
0.003593918,0,0
0.003594318,0,1
0.003599798,0,0
0.003600198,1,0
0.003605678,0,0
0.003606078,0,1
0.003611558,0,0
0.003611958,1,0
0.003617438,0,0
0.003617840,0,1
0.003623318,0,0
0.003623720,1,0
0.003629198,0,0
0.003629600,0,1
0.003635080,0,0
0.003635480,1,0
0.003640960,0,0
0.003641360,0,1
0.003646840,0,0
0.003647240,1,0
0.003652720,0,0
0.003653120,0,1
0.003658600,0,0
0.003659000,1,0
0.003664480,0,0
