Time [s],Channel 0,Channel 1,Channel 2,Channel 3
0.000000000,0,1,0,1
0.000003130,0,0,0,0
0.000003230,1,0,1,0
0.000009008,1,0,0,0
0.000009010,0,0,0,0
0.000009110,0,1,0,1
0.000014890,0,0,0,0
0.000014990,1,0,1,0
0.000020770,0,0,0,0
0.000020870,0,1,0,0
0.000020872,0,1,0,1
0.000026650,0,0,0,0
0.000026750,1,0,1,0
0.000032530,0,0,0,0
0.000032630,0,1,0,0
0.000032632,0,1,0,1
0.000038410,0,0,0,0
0.000038510,1,0,1,0
0.000044290,0,0,0,0
0.000044390,0,1,0,0
0.000044392,0,1,0,1
0.000050170,0,0,0,0
0.000050270,1,0,1,0
0.000056050,0,0,0,0
0.000056150,0,1,0,0
0.000056152,0,1,0,1
0.000061930,0,0,0,1
0.000061932,0,0,0,0
0.000062030,1,0,1,0
0.000067810,0,0,0,0
0.000067912,0,1,0,1
0.000073690,0,0,0,1
0.000073692,0,0,0,0
0.000073790,1,0,1,0
0.000079570,0,0,0,0
0.000079672,0,1,0,1
0.000085450,0,0,0,1
0.000085452,0,0,0,0
0.000085550,0,0,1,0
0.000085552,1,0,1,0
0.000091330,1,0,0,0
0.000091332,0,0,0,0
0.000091432,0,1,0,1
0.000097212,0,0,0,0
0.000097312,1,0,1,0
0.000103090,1,0,0,0
0.000103092,0,0,0,0
0.000103192,0,1,0,1
0.000108972,0,0,0,0
0.000109072,1,0,1,0
0.000114852,0,0,0,0
0.000114952,0,1,0,0
0.000114954,0,1,0,1
0.000120732,0,0,0,0
0.000120832,1,0,1,0
0.000126612,0,0,0,0
0.000126714,0,1,0,1
0.000132492,0,0,0,1
0.000132494,0,0,0,0
0.000132592,1,0,1,0
0.000138372,0,0,0,0
0.000138474,0,1,0,1
0.000144252,0,0,0,1
0.000144254,0,0,0,0
0.000144352,0,0,1,0
0.000144354,1,0,1,0
0.000150132,0,0,0,0
0.000150234,0,1,0,1
0.000156012,0,0,0,1
0.000156014,0,0,0,0
0.000156112,0,0,1,0
0.000156114,1,0,1,0
0.000161892,1,0,0,0
0.000161894,0,0,0,0
0.000161994,0,1,0,1
0.000167774,0,0,0,0
0.000167874,1,0,1,0
0.000173652,1,0,0,0
0.000173654,0,0,0,0
0.000173754,0,1,0,1
0.000179534,0,0,0,0
0.000179634,1,0,1,0
0.000185414,0,0,0,0
0.000185514,0,1,0,0
0.000185516,0,1,0,1
0.000191294,0,0,0,0
0.000191394,1,0,1,0
0.000197174,0,0,0,0
0.000197274,0,1,0,0
0.000197276,0,1,0,1
0.000203054,0,0,0,0
0.000203154,1,0,1,0
0.000208934,0,0,0,0
0.000209036,0,1,0,1
0.000214814,0,0,0,1
0.000214816,0,0,0,0
0.000214914,1,0,1,0
0.000220694,0,0,0,0
0.000220796,0,1,0,1
0.000226574,0,0,0,1
0.000226576,0,0,0,0
0.000226674,0,0,1,0
0.000226676,1,0,1,0
0.000232454,0,0,0,0
0.000232556,0,1,0,1
0.000238336,0,0,0,0
0.000238434,0,0,1,0
0.000238436,1,0,1,0
0.000244214,1,0,0,0
0.000244216,0,0,0,0
0.000244316,0,1,0,1
0.000250096,0,0,0,0
0.000250194,0,0,1,0
0.000250196,1,0,1,0
0.000255974,1,0,0,0
0.000255976,0,0,0,0
0.000256076,0,1,0,1
0.000261856,0,0,0,0
0.000261956,1,0,1,0
0.000267736,0,0,0,0
0.000267836,0,1,0,1
0.000273616,0,0,0,0
0.000273716,1,0,1,0
0.000279496,0,0,0,0
0.000279598,0,1,0,1
0.000285376,0,0,0,1
0.000285378,0,0,0,0
0.000285476,0,0,1,0
0.000285478,1,0,1,0
0.000291256,0,0,0,0
0.000291358,0,1,0,1
0.000297136,0,0,0,1
0.000297138,0,0,0,0
0.000297236,1,0,1,0
0.000303016,0,0,0,0
0.000303118,0,1,0,1
0.000308896,0,0,0,1
0.000308898,0,0,0,0
0.000308996,1,0,1,0
0.000314776,0,0,0,0
0.000314878,0,1,0,1
0.000320656,0,0,0,1
0.000320658,0,0,0,0
0.000320756,0,0,1,0
0.000320758,1,0,1,0
0.000326536,0,0,0,0
0.000326638,0,1,0,1
0.000332418,0,0,0,0
0.000332518,1,0,1,0
0.000338296,1,0,0,0
0.000338298,0,0,0,0
0.000338398,0,1,0,1
0.000344178,0,0,0,0
0.000344278,1,0,1,0
0.000350058,0,0,0,0
0.000350158,0,1,0,0
0.000350160,0,1,0,1
0.000355938,0,0,0,0
0.000356038,1,0,1,0
0.000361818,0,0,0,0
0.000361920,0,1,0,1
0.000367698,0,0,0,1
0.000367700,0,0,0,0
0.000367798,1,0,1,0
0.000373578,0,0,0,0
0.000373680,0,1,0,1
0.000379458,0,0,0,1
0.000379460,0,0,0,0
0.000379558,0,0,1,0
0.000379560,1,0,1,0
0.000385338,1,0,0,0
0.000385340,0,0,0,0
0.000385440,0,1,0,1
0.000391220,0,0,0,0
0.000391320,1,0,1,0
0.000397098,1,0,0,0
0.000397100,0,0,0,0
0.000397200,0,1,0,1
0.000402980,0,0,0,0
0.000403080,1,0,1,0
0.000408858,1,0,0,0
0.000408860,0,0,0,0
0.000408960,0,1,0,1
0.000414740,0,0,0,0
0.000414840,1,0,1,0
0.000420618,1,0,0,0
0.000420620,0,0,0,0
0.000420720,0,1,0,1
0.000426500,0,0,0,0
0.000426600,1,0,1,0
0.000432380,0,0,0,0
0.000432480,0,1,0,0
0.000432482,0,1,0,1
0.000438260,0,0,0,0
0.000438360,1,0,1,0
0.000444140,0,0,0,0
0.000444240,0,1,0,0
0.000444242,0,1,0,1
0.000450020,0,0,0,1
0.000450022,0,0,0,0
0.000450120,1,0,1,0
0.000455900,0,0,0,0
0.000456002,0,1,0,1
0.000461780,0,0,0,1
0.000461782,0,0,0,0
0.000461880,1,0,1,0
0.000467660,0,0,0,0
0.000467762,0,1,0,1
0.000473540,0,0,0,1
0.000473542,0,0,0,0
0.000473640,0,0,1,0
0.000473642,1,0,1,0
0.000479420,0,0,0,0
0.000479522,0,1,0,1
0.000485302,0,0,0,0
0.000485400,0,0,1,0
0.000485402,1,0,1,0
0.000491180,1,0,0,0
0.000491182,0,0,0,0
0.000491282,0,1,0,1
0.000497062,0,0,0,0
0.000497160,0,0,1,0
0.000497162,1,0,1,0
0.000502940,1,0,0,0
0.000502942,0,0,0,0
0.000503042,0,1,0,1
0.000508822,0,0,0,0
0.000508922,1,0,1,0
0.000514702,0,0,0,0
0.000514802,0,1,0,0
0.000514804,0,1,0,1
0.000520582,0,0,0,1
0.000520584,0,0,0,0
0.000520682,1,0,1,0
0.000526462,0,0,0,0
0.000526564,0,1,0,1
0.000532342,0,0,0,1
0.000532344,0,0,0,0
0.000532442,1,0,1,0
0.000538222,0,0,0,0
0.000538324,0,1,0,1
0.000544104,0,0,0,0
0.000544202,0,0,1,0
0.000544204,1,0,1,0
0.000549982,1,0,0,0
0.000549984,0,0,0,0
0.000550084,0,1,0,1
0.000555864,0,0,0,0
0.000555962,0,0,1,0
0.000555964,1,0,1,0
0.000561742,1,0,0,0
0.000561744,0,0,0,0
0.000561844,0,1,0,1
0.000567624,0,0,0,0
0.000567722,0,0,1,0
0.000567724,1,0,1,0
0.000573502,1,0,0,0
0.000573504,0,0,0,0
0.000573604,0,1,0,1
0.000579384,0,0,0,0
0.000579484,1,0,1,0
0.000585262,1,0,0,0
0.000585264,0,0,0,0
0.000585364,0,1,0,1
0.000591144,0,0,0,0
0.000591244,1,0,1,0
0.000597024,0,0,0,0
0.000597126,0,1,0,1
0.000602904,0,0,0,1
0.000602906,0,0,0,0
0.000603004,1,0,1,0
0.000608784,0,0,0,0
0.000608886,0,1,0,1
0.000614664,0,0,0,1
0.000614666,0,0,0,0
0.000614764,0,0,1,0
0.000614766,1,0,1,0
0.000620544,0,0,0,0
0.000620646,0,1,0,1
0.000626426,0,0,0,0
0.000626524,0,0,1,0
0.000626526,1,0,1,0
0.000632304,1,0,0,0
0.000632306,0,0,0,0
0.000632406,0,1,0,1
0.000638186,0,0,0,0
0.000638284,0,0,1,0
0.000638286,1,0,1,0
0.000644064,1,0,0,0
0.000644066,0,0,0,0
0.000644166,0,1,0,1
0.000649946,0,0,0,0
0.000650046,1,0,1,0
0.000655824,1,0,0,0
0.000655826,0,0,0,0
0.000655926,0,1,0,1
0.000661706,0,0,0,0
0.000661806,1,0,1,0
0.000667586,0,0,0,0
0.000667686,0,1,0,0
0.000667688,0,1,0,1
0.000673466,0,0,0,1
0.000673468,0,0,0,0
0.000673566,1,0,1,0
0.000679346,0,0,0,0
0.000679448,0,1,0,1
0.000685226,0,0,0,1
0.000685228,0,0,0,0
0.000685326,1,0,1,0
0.000691106,0,0,0,0
0.000691208,0,1,0,1
0.000696986,0,0,0,1
0.000696988,0,0,0,0
0.000697086,1,0,1,0
0.000702866,0,0,0,0
0.000702968,0,1,0,1
0.000708748,0,0,0,0
0.000708846,0,0,1,0
0.000708848,1,0,1,0
0.000714626,0,0,0,0
0.000714728,0,1,0,1
0.000720506,0,0,0,1
0.000720508,0,0,0,0
0.000720606,0,0,1,0
0.000720608,1,0,1,0
0.000726386,1,0,0,0
0.000726388,0,0,0,0
0.000726488,0,1,0,1
0.000732268,0,0,0,0
0.000732368,1,0,1,0
0.000738148,0,0,0,0
0.000738248,0,1,0,0
0.000738250,0,1,0,1
0.000744028,0,0,0,0
0.000744128,1,0,1,0
0.000749908,0,0,0,0
0.000750008,0,1,0,0
0.000750010,0,1,0,1
0.000755788,0,0,0,0
0.000755888,1,0,1,0
0.000761668,0,0,0,0
0.000761768,0,1,0,0
0.000761770,0,1,0,1
0.000767548,0,0,0,1
0.000767550,0,0,0,0
0.000767648,1,0,1,0
0.000773428,0,0,0,0
0.000773530,0,1,0,1
0.000779308,0,0,0,1
0.000779310,0,0,0,0
0.000779408,0,0,1,0
0.000779410,1,0,1,0
0.000785188,0,0,0,0
0.000785290,0,1,0,1
0.000791070,0,0,0,0
0.000791168,0,0,1,0
0.000791170,1,0,1,0
0.000796948,1,0,0,0
0.000796950,0,0,0,0
0.000797050,0,1,0,1
0.000802830,0,0,0,0
0.000802928,0,0,1,0
0.000802930,1,0,1,0
0.000808708,1,0,0,0
0.000808710,0,0,0,0
0.000808810,0,1,0,1
0.000814590,0,0,0,0
0.000814690,1,0,1,0
0.000820468,1,0,0,0
0.000820470,0,0,0,0
0.000820570,0,1,0,1
0.000826350,0,0,0,0
0.000826450,1,0,1,0
0.000832230,0,0,0,0
0.000832330,0,1,0,0
0.000832332,0,1,0,1
0.000838110,0,0,0,0
0.000838210,1,0,1,0
0.000843990,0,0,0,0
0.000844092,0,1,0,1
0.000849870,0,0,0,1
0.000849872,0,0,0,0
0.000849970,1,0,1,0
0.000855750,0,0,0,0
0.000855852,0,1,0,1
0.000861630,0,0,0,1
0.000861632,0,0,0,0
0.000861730,1,0,1,0
0.000867510,0,0,0,0
0.000867612,0,1,0,1
0.000873392,0,0,0,0
0.000873490,0,0,1,0
0.000873492,1,0,1,0
0.000879270,0,0,0,0
0.000879372,0,1,0,1
0.000885152,0,0,0,0
0.000885250,0,0,1,0
0.000885252,1,0,1,0
0.000891030,1,0,0,0
0.000891032,0,0,0,0
0.000891132,0,1,0,1
0.000896912,0,0,0,0
0.000897012,1,0,1,0
0.000902792,0,0,0,0
0.000902892,0,1,0,0
0.000902894,0,1,0,1
0.000908672,0,0,0,0
0.000908772,1,0,1,0
0.000914552,0,0,0,0
0.000914654,0,1,0,1
0.000920432,0,0,0,1
0.000920434,0,0,0,0
0.000920532,0,0,1,0
0.000920534,1,0,1,0
0.000926312,0,0,0,0
0.000926414,0,1,0,1
0.000932192,0,0,0,1
0.000932194,0,0,0,0
0.000932292,0,0,1,0
0.000932294,1,0,1,0
0.000938072,0,0,0,0
0.000938174,0,1,0,1
0.000943952,0,0,0,1
0.000943954,0,0,0,0
0.000944052,1,0,1,0
0.000949832,0,0,0,0
0.000949934,0,1,0,1
0.000955714,0,0,0,0
0.000955812,0,0,1,0
0.000955814,1,0,1,0
0.000961592,0,0,0,0
0.000961694,0,1,0,1
0.000967474,0,0,0,0
0.000967574,1,0,1,0
0.000973354,0,0,0,0
0.000973454,0,1,0,0
0.000973456,0,1,0,1
0.000979234,0,0,0,0
0.000979334,1,0,1,0
0.000985112,1,0,0,0
0.000985114,0,0,0,0
0.000985214,0,1,0,1
0.000990994,0,0,0,0
0.000991094,1,0,1,0
0.000996874,0,0,0,0
0.000996974,0,1,0,0
0.000996976,0,1,0,1
0.001002754,0,0,0,0
0.001002854,1,0,1,0
0.001008634,0,0,0,0
0.001008734,0,1,0,0
0.001008736,0,1,0,1
0.001014514,0,0,0,1
0.001014516,0,0,0,0
0.001014614,1,0,1,0
0.001020394,0,0,0,0
0.001020496,0,1,0,1
0.001026276,0,0,0,0
0.001026374,0,0,1,0
0.001026376,1,0,1,0
0.001032154,1,0,0,0
0.001032156,0,0,0,0
0.001032256,0,1,0,1
0.001038036,0,0,0,0
0.001038136,1,0,1,0
0.001043914,1,0,0,0
0.001043916,0,0,0,0
0.001044016,0,1,0,1
0.001049796,0,0,0,0
0.001049896,1,0,1,0
0.001055674,1,0,0,0
0.001055676,0,0,0,0
0.001055776,0,1,0,1
0.001061556,0,0,0,0
0.001061656,1,0,1,0
0.001067436,0,0,0,0
0.001067538,0,1,0,1
0.001073316,0,0,0,1
0.001073318,0,0,0,0
0.001073416,1,0,1,0
0.001079196,0,0,0,0
0.001079298,0,1,0,1
0.001085076,0,0,0,1
0.001085078,0,0,0,0
0.001085176,1,0,1,0
0.001090956,0,0,0,0
0.001091058,0,1,0,1
0.001096836,0,0,0,1
0.001096838,0,0,0,0
0.001096936,1,0,1,0
0.001102716,0,0,0,0
0.001102818,0,1,0,1
0.001108598,0,0,0,0
0.001108696,0,0,1,0
0.001108698,1,0,1,0
0.001114476,1,0,0,0
0.001114478,0,0,0,0
0.001114578,0,1,0,1
0.001120358,0,0,0,0
0.001120458,1,0,1,0
0.001126236,1,0,0,0
0.001126238,0,0,0,0
0.001126338,0,1,0,1
0.001132118,0,0,0,0
0.001132218,1,0,1,0
0.001137996,1,0,0,0
0.001137998,0,0,0,0
0.001138098,0,1,0,1
0.001143878,0,0,0,0
0.001143978,1,0,1,0
0.001149758,0,0,0,0
0.001149858,0,1,0,0
0.001149860,0,1,0,1
0.001155638,0,0,0,0
0.001155738,1,0,1,0
0.001161518,0,0,0,0
0.001161618,0,1,0,0
0.001161620,0,1,0,1
0.001167398,0,0,0,1
0.001167400,0,0,0,0
0.001167498,1,0,1,0
0.001173278,0,0,0,0
0.001173380,0,1,0,1
0.001179158,0,0,0,1
0.001179160,0,0,0,0
0.001179258,1,0,1,0
0.001185038,0,0,0,0
0.001185140,0,1,0,1
0.001190920,0,0,0,0
0.001191020,1,0,1,0
0.001196798,1,0,0,0
0.001196800,0,0,0,0
0.001196900,0,1,0,1
0.001202680,0,0,0,0
0.001202780,1,0,1,0
0.001208560,0,0,0,0
0.001208660,0,1,0,0
0.001208662,0,1,0,1
0.001214440,0,0,0,0
0.001214540,1,0,1,0
0.001220320,0,0,0,0
0.001220420,0,1,0,0
0.001220422,0,1,0,1
0.001226200,0,0,0,0
0.001226300,1,0,1,0
0.001232080,0,0,0,0
0.001232182,0,1,0,1
0.001237960,0,0,0,1
0.001237962,0,0,0,0
0.001238060,1,0,1,0
0.001243840,0,0,0,0
0.001243942,0,1,0,1
0.001249720,0,0,0,1
0.001249722,0,0,0,0
0.001249820,0,0,1,0
0.001249822,1,0,1,0
0.001255600,0,0,0,0
0.001255702,0,1,0,1
0.001261480,0,0,0,1
0.001261482,0,0,0,0
0.001261580,0,0,1,0
0.001261582,1,0,1,0
0.001267360,0,0,0,0
0.001267462,0,1,0,1
0.001273240,0,0,0,1
0.001273242,0,0,0,0
0.001273340,0,0,1,0
0.001273342,1,0,1,0
0.001279120,0,0,0,0
0.001279222,0,1,0,1
0.001285002,0,0,0,0
0.001285100,0,0,1,0
0.001285102,1,0,1,0
0.001290880,1,0,0,0
0.001290882,0,0,0,0
0.001290982,0,1,0,1
0.001296762,0,0,0,0
0.001296862,1,0,1,0
0.001302642,0,0,0,0
0.001302742,0,1,0,0
0.001302744,0,1,0,1
0.001308522,0,0,0,0
0.001308622,1,0,1,0
0.001314402,0,0,0,0
0.001314504,0,1,0,1
0.001320282,0,0,0,1
0.001320284,0,0,0,0
0.001320382,1,0,1,0
0.001326162,0,0,0,0
0.001326264,0,1,0,1
0.001332044,0,0,0,0
0.001332142,0,0,1,0
0.001332144,1,0,1,0
0.001337922,0,0,0,0
0.001338024,0,1,0,1
0.001343804,0,0,0,0
0.001343902,0,0,1,0
0.001343904,1,0,1,0
0.001349682,1,0,0,0
0.001349684,0,0,0,0
0.001349784,0,1,0,1
0.001355564,0,0,0,0
0.001355664,1,0,1,0
0.001361442,1,0,0,0
0.001361444,0,0,0,0
0.001361544,0,1,0,1
0.001367324,0,0,0,0
0.001367424,1,0,1,0
0.001373202,1,0,0,0
0.001373204,0,0,0,0
0.001373304,0,1,0,1
0.001379084,0,0,0,0
0.001379184,1,0,1,0
0.001384964,0,0,0,0
0.001385064,0,1,0,0
0.001385066,0,1,0,1
0.001390844,0,0,0,0
0.001390944,1,0,1,0
0.001396724,0,0,0,0
0.001396824,0,1,0,0
0.001396826,0,1,0,1
0.001402604,0,0,0,1
0.001402606,0,0,0,0
0.001402704,1,0,1,0
0.001408484,0,0,0,0
0.001408586,0,1,0,1
0.001414364,0,0,0,1
0.001414366,0,0,0,0
0.001414464,1,0,1,0
0.001420244,0,0,0,0
0.001420346,0,1,0,1
0.001426126,0,0,0,0
0.001426224,0,0,1,0
0.001426226,1,0,1,0
0.001432004,1,0,0,0
0.001432006,0,0,0,0
0.001432106,0,1,0,1
0.001437886,0,0,0,0
0.001437986,1,0,1,0
0.001443766,0,0,0,0
0.001443866,0,1,0,0
0.001443868,0,1,0,1
0.001449646,0,0,0,0
0.001449746,1,0,1,0
0.001455526,0,0,0,0
0.001455626,0,1,0,0
0.001455628,0,1,0,1
0.001461406,0,0,0,0
0.001461506,1,0,1,0
0.001467286,0,0,0,0
0.001467386,0,1,0,0
0.001467388,0,1,0,1
0.001473166,0,0,0,0
0.001473266,1,0,1,0
0.001479046,0,0,0,0
0.001479148,0,1,0,1
0.001484926,0,0,0,1
0.001484928,0,0,0,0
0.001485026,1,0,1,0
0.001490806,0,0,0,0
0.001490908,0,1,0,1
0.001496686,0,0,0,1
0.001496688,0,0,0,0
0.001496786,1,0,1,0
0.001502566,1,0,0,0
0.001502568,0,0,0,0
0.001502668,0,1,0,1
0.001508448,0,0,0,0
0.001508548,1,0,1,0
0.001514326,1,0,0,0
0.001514328,0,0,0,0
0.001514428,0,1,0,1
0.001520208,0,0,0,0
0.001520308,1,0,1,0
0.001526086,1,0,0,0
0.001526088,0,0,0,0
0.001526188,0,1,0,1
0.001531968,0,0,0,0
0.001532068,1,0,1,0
0.001537846,1,0,0,0
0.001537848,0,0,0,0
0.001537948,0,1,0,1
0.001543728,0,0,0,0
0.001543828,1,0,1,0
0.001549608,0,0,0,0
0.001549708,0,1,0,0
0.001549710,0,1,0,1
0.001555488,0,0,0,1
0.001555490,0,0,0,0
0.001555588,1,0,1,0
0.001561368,0,0,0,0
0.001561470,0,1,0,1
0.001567248,0,0,0,1
0.001567250,0,0,0,0
0.001567348,0,0,1,0
0.001567350,1,0,1,0
0.001573128,0,0,0,0
0.001573230,0,1,0,1
0.001579010,0,0,0,0
0.001579108,0,0,1,0
0.001579110,1,0,1,0
0.001584888,1,0,0,0
0.001584890,0,0,0,0
0.001584990,0,1,0,1
0.001590770,0,0,0,0
0.001590868,0,0,1,0
0.001590870,1,0,1,0
0.001596648,0,0,0,0
0.001596750,0,1,0,1
0.001602530,0,0,0,0
0.001602630,1,0,1,0
0.001608410,0,0,0,0
0.001608510,0,1,0,0
0.001608512,0,1,0,1
0.001614290,0,0,0,0
0.001614390,1,0,1,0
0.001620170,0,0,0,0
0.001620270,0,1,0,0
0.001620272,0,1,0,1
0.001626050,0,0,0,1
0.001626052,0,0,0,0
0.001626150,1,0,1,0
0.001631930,0,0,0,0
0.001632032,0,1,0,1
0.001637810,0,0,0,1
0.001637812,0,0,0,0
0.001637910,1,0,1,0
0.001643690,0,0,0,0
0.001643792,0,1,0,1
0.001649570,0,0,0,1
0.001649572,0,0,0,0
0.001649670,0,0,1,0
0.001649672,1,0,1,0
0.001655450,1,0,0,0
0.001655452,0,0,0,0
0.001655552,0,1,0,1
0.001661332,0,0,0,0
0.001661430,0,0,1,0
0.001661432,1,0,1,0
0.001667210,1,0,0,0
0.001667212,0,0,0,0
0.001667312,0,1,0,1
0.001673092,0,0,0,0
0.001673192,1,0,1,0
0.001678972,0,0,0,0
0.001679072,0,1,0,0
0.001679074,0,1,0,1
0.001684852,0,0,0,0
0.001684952,1,0,1,0
0.001690730,1,0,0,0
0.001690732,0,0,0,0
0.001690832,0,1,0,1
0.001696612,0,0,0,0
0.001696712,1,0,1,0
0.001702490,1,0,0,0
0.001702492,0,0,0,0
0.001702592,0,1,0,1
0.001708372,0,0,0,0
0.001708472,1,0,1,0
0.001714252,0,0,0,0
0.001714354,0,1,0,1
0.001720132,0,0,0,0
0.001720232,1,0,1,0
0.001726012,0,0,0,0
0.001726114,0,1,0,1
0.001731894,0,0,0,0
0.001731992,0,0,1,0
0.001731994,1,0,1,0
0.001737772,1,0,0,0
0.001737774,0,0,0,0
0.001737874,0,1,0,1
0.001743652,0,0,0,1
0.001743654,0,0,0,0
0.001743752,0,0,1,0
0.001743754,1,0,1,0
0.001749532,0,0,0,0
0.001749634,0,1,0,1
0.001755414,0,0,0,0
0.001755514,1,0,1,0
0.001761292,1,0,0,0
0.001761294,0,0,0,0
0.001761394,0,1,0,1
0.001767174,0,0,0,0
0.001767274,1,0,1,0
0.001773054,0,0,0,0
0.001773154,0,1,0,0
0.001773156,0,1,0,1
0.001778934,0,0,0,0
0.001779034,1,0,1,0
0.001784814,0,0,0,0
0.001784916,0,1,0,1
0.001790694,0,0,0,1
0.001790696,0,0,0,0
0.001790794,1,0,1,0
0.001796574,0,0,0,0
0.001796676,0,1,0,1
0.001802454,0,0,0,1
0.001802456,0,0,0,0
0.001802554,1,0,1,0
0.001808334,0,0,0,0
0.001808436,0,1,0,1
0.001814214,0,0,0,1
0.001814216,0,0,0,0
0.001814314,0,0,1,0
0.001814316,1,0,1,0
0.001820094,1,0,0,0
0.001820096,0,0,0,0
0.001820196,0,1,0,1
0.001825976,0,0,0,0
0.001826076,1,0,1,0
0.001831854,1,0,0,0
0.001831856,0,0,0,0
0.001831956,0,1,0,1
0.001837736,0,0,0,0
0.001837836,1,0,1,0
0.001843616,0,0,0,0
0.001843716,0,1,0,0
0.001843718,0,1,0,1
0.001849496,0,0,0,0
0.001849596,1,0,1,0
0.001855374,1,0,0,0
0.001855376,0,0,0,0
0.001855476,0,1,0,1
0.001861256,0,0,0,0
0.001861356,1,0,1,0
0.001867136,0,0,0,0
0.001867238,0,1,0,1
0.001873016,0,0,0,1
0.001873018,0,0,0,0
0.001873116,1,0,1,0
0.001878896,0,0,0,0
0.001878996,0,1,0,0
0.001878998,0,1,0,1
0.001884776,0,0,0,1
0.001884778,0,0,0,0
0.001884876,1,0,1,0
0.001890656,0,0,0,0
0.001890758,0,1,0,1
0.001896536,0,0,0,1
0.001896538,0,0,0,0
0.001896636,0,0,1,0
0.001896638,1,0,1,0
0.001902416,0,0,0,0
0.001902518,0,1,0,1
0.001908298,0,0,0,0
0.001908396,0,0,1,0
0.001908398,1,0,1,0
0.001914176,1,0,0,0
0.001914178,0,0,0,0
0.001914278,0,1,0,1
0.001920058,0,0,0,0
0.001920158,1,0,1,0
0.001925936,1,0,0,0
0.001925938,0,0,0,0
0.001926038,0,1,0,1
0.001931818,0,0,0,0
0.001931918,1,0,1,0
0.001937698,0,0,0,0
0.001937798,0,1,0,0
0.001937800,0,1,0,1
0.001943578,0,0,0,1
0.001943580,0,0,0,0
0.001943678,1,0,1,0
0.001949458,0,0,0,0
0.001949560,0,1,0,1
0.001955338,0,0,0,1
0.001955340,0,0,0,0
0.001955438,1,0,1,0
0.001961218,0,0,0,0
0.001961320,0,1,0,1
0.001967098,0,0,0,1
0.001967100,0,0,0,0
0.001967198,0,0,1,0
0.001967200,1,0,1,0
0.001972978,0,0,0,0
0.001973080,0,1,0,1
0.001978860,0,0,0,0
0.001978958,0,0,1,0
0.001978960,1,0,1,0
0.001984738,0,0,0,0
0.001984840,0,1,0,1
0.001990620,0,0,0,0
0.001990718,0,0,1,0
0.001990720,1,0,1,0
0.001996498,1,0,0,0
0.001996500,0,0,0,0
0.001996600,0,1,0,1
0.002002380,0,0,0,0
0.002002480,1,0,1,0
0.002008260,0,0,0,0
0.002008360,0,1,0,0
0.002008362,0,1,0,1
0.002014140,0,0,0,0
0.002014240,1,0,1,0
0.002020020,0,0,0,0
0.002020120,0,1,0,0
0.002020122,0,1,0,1
0.002025900,0,0,0,1
0.002025902,0,0,0,0
0.002026000,1,0,1,0
0.002031780,0,0,0,0
0.002031882,0,1,0,1
0.002037660,0,0,0,1
0.002037662,0,0,0,0
0.002037760,1,0,1,0
0.002043540,0,0,0,0
0.002043642,0,1,0,1
0.002049420,0,0,0,1
0.002049422,0,0,0,0
0.002049520,0,0,1,0
0.002049522,1,0,1,0
0.002055300,1,0,0,0
0.002055302,0,0,0,0
0.002055402,0,1,0,1
0.002061182,0,0,0,0
0.002061280,0,0,1,0
0.002061282,1,0,1,0
0.002067060,1,0,0,0
0.002067062,0,0,0,0
0.002067162,0,1,0,1
0.002072942,0,0,0,0
0.002073042,1,0,1,0
0.002078820,1,0,0,0
0.002078822,0,0,0,0
0.002078922,0,1,0,1
0.002084702,0,0,0,0
0.002084802,1,0,1,0
0.002090582,0,0,0,0
0.002090682,0,1,0,0
0.002090684,0,1,0,1
0.002096462,0,0,0,0
0.002096562,1,0,1,0
0.002102342,0,0,0,0
0.002102442,0,1,0,0
0.002102444,0,1,0,1
0.002108222,0,0,0,1
0.002108224,0,0,0,0
0.002108322,1,0,1,0
0.002114102,0,0,0,0
0.002114204,0,1,0,1
0.002119982,0,0,0,1
0.002119984,0,0,0,0
0.002120082,1,0,1,0
0.002125862,0,0,0,0
0.002125964,0,1,0,1
0.002131744,0,0,0,0
0.002131842,0,0,1,0
0.002131844,1,0,1,0
0.002137622,1,0,0,0
0.002137624,0,0,0,0
0.002137724,0,1,0,1
0.002143504,0,0,0,0
0.002143602,0,0,1,0
0.002143604,1,0,1,0
0.002149382,1,0,0,0
0.002149384,0,0,0,0
0.002149484,0,1,0,1
0.002155264,0,0,0,0
0.002155364,1,0,1,0
0.002161142,1,0,0,0
0.002161144,0,0,0,0
0.002161244,0,1,0,1
0.002167024,0,0,0,0
0.002167124,1,0,1,0
0.002172904,0,0,0,0
0.002173004,0,1,0,0
0.002173006,0,1,0,1
0.002178784,0,0,0,0
0.002178884,1,0,1,0
0.002184664,0,0,0,0
0.002184766,0,1,0,1
0.002190544,0,0,0,0
0.002190644,1,0,1,0
0.002196424,0,0,0,0
0.002196526,0,1,0,1
0.002202304,0,0,0,1
0.002202306,0,0,0,0
0.002202404,0,0,1,0
0.002202406,1,0,1,0
0.002208184,1,0,0,0
0.002208186,0,0,0,0
0.002208286,0,1,0,1
0.002214066,0,0,0,0
0.002214166,1,0,1,0
0.002219944,1,0,0,0
0.002219946,0,0,0,0
0.002220046,0,1,0,1
0.002225826,0,0,0,0
0.002225926,1,0,1,0
0.002231704,1,0,0,0
0.002231706,0,0,0,0
0.002231806,0,1,0,1
0.002237586,0,0,0,0
0.002237684,0,0,1,0
0.002237686,1,0,1,0
0.002243464,1,0,0,0
0.002243466,0,0,0,0
