Time [s],Channel 0,Channel 1
0.000000000,0,0
0.000003446,1,0
0.000003460,1,1
0.000003764,1,0
0.000008926,0,0
0.000015206,1,1
0.000015508,1,0
0.000020686,0,0
0.000026966,1,0
0.000026996,1,1
0.000027300,1,0
0.000032446,0,0
0.000038710,0,1
0.000038726,1,1
0.000039014,1,0
0.000044206,0,0
0.000050486,1,0
0.000050676,1,1
0.000050980,1,0
0.000055966,0,0
0.000062226,0,1
0.000062248,1,1
0.000062530,1,0
0.000067728,0,0
0.000074008,1,0
0.000074036,1,1
0.000074340,1,0
0.000079488,0,0
0.000085722,0,1
0.000085768,1,1
0.000086026,1,0
0.000091248,0,0
0.000097518,0,1
0.000097528,1,1
0.000097820,1,0
0.000103008,0,0
0.000109278,0,1
0.000109288,1,1
0.000109582,1,0
0.000114768,0,0
0.000121022,0,1
0.000121048,1,1
0.000121326,1,0
0.000126528,0,0
0.000132810,1,0
0.000132898,1,1
0.000133202,1,0
0.000138290,0,0
0.000144538,0,1
0.000144570,1,1
0.000144842,1,0
0.000150050,0,0
0.000156330,1,0
0.000156464,1,1
0.000156768,1,0
0.000161810,0,0
0.000168028,0,1
0.000168090,1,1
0.000168332,1,0
0.000173570,0,0
0.000179834,0,1
0.000179850,1,1
0.000180138,1,0
0.000185330,0,0
0.000191564,0,1
0.000191610,1,1
0.000191868,1,0
0.000197090,0,0
0.000203370,0,1
0.000203372,1,1
0.000203674,1,0
0.000208850,0,0
0.000215132,1,0
0.000215216,1,1
0.000215518,1,0
0.000220612,0,0
0.000226892,1,0
0.000226926,1,1
0.000227230,1,0
0.000232372,0,0
0.000238652,1,0
0.000238696,1,1
0.000239000,1,0
0.000244132,0,0
0.000250392,0,1
0.000250412,1,1
0.000250696,1,0
0.000255892,0,0
0.000262172,1,0
0.000262262,1,1
0.000262566,1,0
0.000267652,0,0
0.000273912,0,1
0.000273934,1,1
0.000274216,1,0
0.000279412,0,0
0.000285692,1,0
0.000285722,1,1
0.000286026,1,0
0.000291172,0,0
0.000297454,1,0
0.000297468,1,1
0.000297772,1,0
0.000302934,0,0
0.000309214,1,1
0.000309516,1,0
0.000314694,0,0
0.000320974,1,0
0.000321004,1,1
0.000321308,1,0
0.000326454,0,0
0.000332734,1,0
0.000332754,1,1
0.000333058,1,0
0.000338214,0,0
0.000344494,1,0
0.000344528,1,1
0.000344832,1,0
0.000349974,0,0
0.000356234,0,1
0.000356254,1,1
0.000356538,1,0
0.000361734,0,0
0.000368016,1,0
0.000368120,1,1
0.000368424,1,0
0.000373496,0,0
0.000379754,0,1
0.000379776,1,1
0.000380058,1,0
0.000385256,0,0
0.000391536,1,0
0.000391544,1,1
0.000391848,1,0
0.000397016,0,0
0.000403296,1,0
0.000403310,1,1
0.000403614,1,0
0.000408776,0,0
0.000415056,0,1
0.000415058,1,1
0.000415360,1,0
0.000420536,0,0
0.000426816,1,0
0.000426846,1,1
0.000427150,1,0
0.000432296,0,0
0.000438576,1,0
0.000438586,1,1
0.000438890,1,0
0.000444056,0,0
0.000450338,1,0
0.000450366,1,1
0.000450670,1,0
0.000455818,0,0
0.000462062,0,1
0.000462098,1,1
0.000462366,1,0
0.000467578,0,0
0.000473858,1,0
0.000473938,1,1
0.000474240,1,0
0.000479338,0,0
0.000485618,1,1
0.000485922,1,0
0.000491098,0,0
0.000497378,0,1
0.000497380,1,1
0.000497682,1,0
0.000502858,0,0
0.000509138,0,1
0.000509140,1,1
0.000509442,1,0
0.000514620,0,0
0.000520878,0,1
0.000520900,1,1
0.000521182,1,0
0.000526380,0,0
0.000532658,0,1
0.000532660,1,1
0.000532962,1,0
0.000538140,0,0
0.000544420,1,0
0.000544428,1,1
0.000544734,1,0
0.000549900,0,0
0.000556180,1,0
0.000556234,1,1
0.000556538,1,0
0.000561660,0,0
0.000567890,0,1
0.000567940,1,1
0.000568194,1,0
0.000573420,0,0
0.000579700,0,1
0.000579702,1,1
0.000580004,1,0
0.000585180,0,0
0.000591460,0,1
0.000591462,1,1
0.000591764,1,0
0.000596942,0,0
0.000603222,1,0
0.000603240,1,1
0.000603544,1,0
0.000608702,0,0
0.000614972,0,1
0.000614982,1,1
0.000615274,1,0
0.000620462,0,0
0.000626742,1,0
0.000626750,1,1
0.000627056,1,0
0.000632222,0,0
0.000638502,1,0
0.000638592,1,1
0.000638896,1,0
0.000643982,0,0
0.000650242,0,1
0.000650262,1,1
0.000650546,1,0
0.000655742,0,0
0.000662022,1,0
0.000662052,1,1
0.000662356,1,0
0.000667502,0,0
0.000673742,0,1
0.000673784,1,1
0.000674046,1,0
0.000679264,0,0
0.000685528,0,1
0.000685544,1,1
0.000685832,1,0
0.000691024,0,0
0.000697294,0,1
0.000697304,1,1
0.000697598,1,0
0.000702784,0,0
0.000709038,0,1
0.000709064,1,1
0.000709342,1,0
0.000714544,0,0
0.000720824,1,0
0.000720830,1,1
0.000721132,1,0
0.000726304,0,0
0.000732574,0,1
0.000732584,1,1
0.000732878,1,0
0.000738064,0,0
0.000744346,1,0
0.000744524,1,1
0.000744828,1,0
0.000749824,0,0
0.000756060,0,1
0.000756106,1,1
0.000756364,1,0
0.000761586,0,0
0.000767866,1,0
0.000767894,1,1
0.000768198,1,0
0.000773346,0,0
0.000779600,0,1
0.000779626,1,1
0.000779904,1,0
0.000785106,0,0
0.000791386,1,0
0.000791390,1,1
0.000791694,1,0
0.000796866,0,0
0.000803120,0,1
0.000803146,1,1
0.000803424,1,0
0.000808626,0,0
0.000814882,0,1
0.000814908,1,1
0.000815186,1,0
0.000820386,0,0
0.000826668,1,0
0.000826672,1,1
0.000826976,1,0
0.000832148,0,0
0.000838412,0,1
0.000838428,1,1
0.000838716,1,0
0.000843908,0,0
0.000850188,1,0
0.000850336,1,1
0.000850640,1,0
0.000855668,0,0
0.000861948,1,0
0.000862032,1,1
0.000862336,1,0
0.000867428,0,0
0.000873672,0,1
0.000873708,1,1
0.000873976,1,0
0.000879188,0,0
0.000885468,0,1
0.000885470,1,1
0.000885772,1,0
0.000890948,0,0
0.000897204,0,1
0.000897230,1,1
0.000897508,1,0
0.000902710,0,0
0.000908990,1,1
0.000909292,1,0
0.000914470,0,0
0.000920750,1,0
0.000920778,1,1
0.000921082,1,0
0.000926230,0,0
0.000932494,0,1
0.000932510,1,1
0.000932798,1,0
0.000937990,0,0
0.000944270,1,0
0.000944450,1,1
0.000944754,1,0
0.000949750,0,0
0.000956010,0,1
0.000956032,1,1
0.000956314,1,0
0.000961510,0,0
0.000967792,1,0
0.000967886,1,1
0.000968188,1,0
0.000973270,0,0
0.000979530,0,1
0.000979552,1,1
0.000979834,1,0
0.000985032,0,0
0.000991312,1,0
0.000991320,1,1
0.000991624,1,0
0.000996792,0,0
0.001003062,0,1
0.001003072,1,1
0.001003366,1,0
0.001008552,0,0
0.001014806,0,1
0.001014832,1,1
0.001015110,1,0
0.001020312,0,0
0.001026592,1,0
0.001026598,1,1
0.001026900,1,0
0.001032072,0,0
0.001038338,0,1
0.001038354,1,1
0.001038642,1,0
0.001043834,0,0
0.001050114,1,0
0.001050128,1,1
0.001050432,1,0
0.001055594,0,0
0.001061828,0,1
0.001061874,1,1
0.001062132,1,0
0.001067354,0,0
0.001073634,1,0
0.001073658,1,1
0.001073962,1,0
0.001079114,0,0
0.001085358,0,1
0.001085394,1,1
0.001085662,1,0
0.001090874,0,0
0.001097134,0,1
0.001097154,1,1
0.001097438,1,0
0.001102634,0,0
0.001108894,0,1
0.001108916,1,1
0.001109198,1,0
0.001114394,0,0
0.001120650,0,1
0.001120676,1,1
0.001120954,1,0
0.001126156,0,0
0.001132436,1,0
0.001132464,1,1
0.001132768,1,0
0.001137916,0,0
0.001144166,0,1
0.001144196,1,1
0.001144468,1,0
0.001149676,0,0
0.001155956,1,0
0.001156096,1,1
0.001156398,1,0
0.001161436,0,0
0.001167670,0,1
0.001167716,1,1
0.001167974,1,0
0.001173196,0,0
0.001179436,0,1
0.001179476,1,1
0.001179740,1,0
0.001184956,0,0
0.001191196,0,1
0.001191238,1,1
0.001191500,1,0
0.001196716,0,0
0.001202972,0,1
0.001202998,1,1
0.001203276,1,0
0.001208478,0,0
0.001214758,1,0
0.001214832,1,1
0.001215136,1,0
0.001220238,0,0
0.001226472,0,1
0.001226518,1,1
0.001226776,1,0
0.001231998,0,0
0.001238278,1,0
0.001238286,1,1
0.001238592,1,0
0.001243758,0,0
0.001250002,0,1
0.001250038,1,1
0.001250306,1,0
0.001255518,0,0
0.001261728,0,1
0.001261798,1,1
0.001262032,1,0
0.001267278,0,0
0.001273548,0,1
0.001273558,1,1
0.001273852,1,0
0.001279038,0,0
0.001285314,0,1
0.001285318,1,1
0.001285618,1,0
0.001290800,0,0
0.001297080,1,0
0.001297104,1,1
0.001297408,1,0
0.001302560,0,0
0.001308794,0,1
0.001308840,1,1
0.001309098,1,0
0.001314320,0,0
0.001320600,1,0
0.001320640,1,1
0.001320944,1,0
0.001326080,0,0
0.001332316,0,1
0.001332360,1,1
0.001332618,1,0
0.001337840,0,0
0.001344080,0,1
0.001344122,1,1
0.001344384,1,0
0.001349602,0,0
0.001355836,0,1
0.001355882,1,1
0.001356140,1,0
0.001361362,0,0
0.001367642,1,1
0.001367944,1,0
0.001373122,0,0
0.001379402,1,0
0.001379452,1,1
0.001379756,1,0
0.001384882,0,0
0.001391142,0,1
0.001391162,1,1
0.001391446,1,0
0.001396642,0,0
0.001402922,1,0
0.001402962,1,1
0.001403266,1,0
0.001408402,0,0
0.001414656,0,1
0.001414682,1,1
0.001414960,1,0
0.001420162,0,0
0.001426402,0,1
0.001426444,1,1
0.001426706,1,0
0.001431922,0,0
0.001438158,0,1
0.001438204,1,1
0.001438462,1,0
0.001443684,0,0
0.001449938,0,1
0.001449964,1,1
0.001450242,1,0
0.001455444,0,0
0.001461724,1,0
0.001461784,1,1
0.001462088,1,0
0.001467204,0,0
0.001473438,0,1
0.001473484,1,1
0.001473742,1,0
0.001478964,0,0
0.001485244,1,0
0.001485248,1,1
0.001485552,1,0
0.001490724,0,0
0.001496970,0,1
0.001497006,1,1
0.001497274,1,0
0.001502486,0,0
0.001508724,0,1
0.001508766,1,1
0.001509028,1,0
0.001514246,0,0
0.001520514,0,1
0.001520526,1,1
0.001520818,1,0
0.001526006,0,0
0.001532280,0,1
0.001532286,1,1
0.001532584,1,0
0.001537766,0,0
0.001544046,1,0
0.001544140,1,1
0.001544444,1,0
0.001549526,0,0
0.001555786,0,1
0.001555806,1,1
0.001556090,1,0
0.001561286,0,0
0.001567566,1,0
0.001567750,1,1
0.001568054,1,0
0.001573046,0,0
0.001579282,0,1
0.001579328,1,1
0.001579584,1,0
0.001584808,0,0
0.001591088,1,0
0.001591146,1,1
0.001591450,1,0
0.001596568,0,0
0.001602788,0,1
0.001602848,1,1
0.001603090,1,0
0.001608328,0,0
0.001614598,0,1
0.001614608,1,1
0.001614902,1,0
0.001620088,0,0
0.001626322,0,1
0.001626368,1,1
0.001626626,1,0
0.001631848,0,0
0.001638128,0,1
0.001638130,1,1
0.001638432,1,0
0.001643608,0,0
0.001649890,1,0
0.001649964,1,1
0.001650268,1,0
0.001655370,0,0
0.001661628,0,1
0.001661650,1,1
0.001661932,1,0
0.001667130,0,0
0.001673410,1,0
0.001673470,1,1
0.001673772,1,0
0.001678890,0,0
0.001685130,0,1
0.001685170,1,1
0.001685434,1,0
0.001690650,0,0
0.001696930,1,0
0.001696934,1,1
0.001697238,1,0
0.001702410,0,0
0.001708690,1,0
0.001708698,1,1
0.001709004,1,0
0.001714170,0,0
0.001720446,0,1
0.001720450,1,1
0.001720748,1,0
0.001725930,0,0
0.001732212,1,0
0.001732290,1,1
0.001732594,1,0
0.001737692,0,0
0.001743942,0,1
0.001743972,1,1
0.001744244,1,0
0.001749452,0,0
0.001755732,1,0
0.001755882,1,1
0.001756184,1,0
0.001761212,0,0
0.001767430,0,1
0.001767492,1,1
0.001767734,1,0
0.001772972,0,0
0.001779252,1,0
0.001779276,1,1
0.001779580,1,0
0.001784732,0,0
0.001790938,0,1
0.001791012,1,1
0.001791240,1,0
0.001796492,0,0
0.001802742,0,1
0.001802774,1,1
0.001803046,1,0
0.001808254,0,0
0.001814518,0,1
0.001814534,1,1
0.001814822,1,0
0.001820014,0,0
0.001826268,0,1
0.001826294,1,1
0.001826572,1,0
0.001831774,0,0
0.001838054,1,0
0.001838098,1,1
0.001838402,1,0
0.001843534,0,0
0.001849738,0,1
0.001849814,1,1
0.001850042,1,0
0.001855294,0,0
0.001861500,0,1
0.001861574,1,1
0.001861802,1,0
0.001867054,0,0
0.001873294,0,1
0.001873336,1,1
0.001873598,1,0
0.001878816,0,0
0.001885096,1,0
0.001885104,1,1
0.001885408,1,0
0.001890576,0,0
0.001896830,0,1
0.001896856,1,1
0.001897134,1,0
0.001902336,0,0
0.001908616,1,0
0.001908670,1,1
0.001908974,1,0
0.001914096,0,0
0.001920330,0,1
0.001920376,1,1
0.001920634,1,0
0.001925856,0,0
0.001932136,1,0
0.001932140,1,1
0.001932444,1,0
0.001937616,0,0
0.001943860,0,1
0.001943896,1,1
0.001944164,1,0
0.001949376,0,0
0.001955656,0,1
0.001955658,1,1
0.001955960,1,0
0.001961136,0,0
0.001967392,0,1
0.001967418,1,1
0.001967696,1,0
0.001972898,0,0
0.001979178,1,1
0.001979480,1,0
0.001984658,0,0
0.001990938,1,0
0.001991052,1,1
0.001991356,1,0
0.001996418,0,0
0.002002698,1,1
0.002003002,1,0
0.002008178,0,0
0.002014458,1,0
0.002014602,1,1
0.002014906,1,0
0.002019938,0,0
0.002026184,0,1
0.002026218,1,1
0.002026486,1,0
0.002031698,0,0
0.002037980,1,0
0.002037988,1,1
0.002038292,1,0
0.002043460,0,0
0.002049740,1,0
0.002049754,1,1
0.002050058,1,0
0.002055220,0,0
0.002061500,1,1
0.002061802,1,0
0.002066980,0,0
0.002073260,1,0
0.002073290,1,1
0.002073594,1,0
0.002078740,0,0
0.002085020,1,0
0.002085028,1,1
0.002085334,1,0
0.002090500,0,0
0.002096780,1,0
0.002096820,1,1
0.002097124,1,0
0.002102260,0,0
0.002108506,0,1
0.002108540,1,1
0.002108810,1,0
0.002114020,0,0
0.002120286,0,1
0.002120302,1,1
0.002120590,1,0
0.002125782,0,0
0.002132042,0,1
0.002132062,1,1
0.002132346,1,0
0.002137542,0,0
0.002143822,1,1
0.002144126,1,0
0.002149302,0,0
0.002155582,1,0
0.002155682,1,1
0.002155986,1,0
0.002161062,0,0
0.002167338,0,1
0.002167342,1,1
0.002167640,1,0
0.002172822,0,0
0.002179104,1,0
0.002179232,1,1
0.002179536,1,0
0.002184584,0,0
0.002190842,0,1
0.002190864,1,1
0.002191146,1,0
0.002196344,0,0
0.002202614,0,1
0.002202624,1,1
0.002202916,1,0
0.002208104,0,0
0.002214384,1,0
0.002214398,1,1
0.002214702,1,0
0.002219864,0,0
0.002226144,1,1
0.002226448,1,0
0.002231624,0,0
0.002237904,1,0
0.002237934,1,1
0.002238238,1,0
0.002243384,0,0
0.002249654,0,1
0.002249664,1,1
0.002249958,1,0
0.002255144,0,0
0.002261424,1,0
0.002261650,1,1
0.002261952,1,0
0.002266906,0,0
0.002273164,0,1
0.002273186,1,1
0.002273468,1,0
0.002278666,0,0
0.002284946,1,0
0.002285006,1,1
0.002285308,1,0
0.002290426,0,0
0.002296696,0,1
0.002296706,1,1
0.002297000,1,0
0.002302186,0,0
0.002308466,1,0
0.002308490,1,1
0.002308794,1,0
0.002313946,0,0
0.002320228,1,0
0.002320242,1,1
0.002320544,1,0
0.002325706,0,0
0.002331986,0,1
0.002331988,1,1
0.002332290,1,0
0.002337466,0,0
0.002343748,1,0
0.002343812,1,1
0.002344116,1,0
0.002349228,0,0
0.002355486,0,1
0.002355508,1,1
0.002355790,1,0
0.002360988,0,0
0.002367268,1,0
0.002367318,1,1
0.002367622,1,0
0.002372748,0,0
0.002378968,0,1
0.002379028,1,1
0.002379272,1,0
0.002384508,0,0
0.002390758,0,1
0.002390788,1,1
0.002391062,1,0
0.002396268,0,0
0.002402508,0,1
0.002402548,1,1
0.002402812,1,0
0.002408028,0,0
0.002414284,0,1
0.002414310,1,1
0.002414588,1,0
0.002419790,0,0
0.002426070,1,0
0.002426114,1,1
0.002426418,1,0
0.002431550,0,0
0.002437770,0,1
0.002437830,1,1
0.002438072,1,0
0.002443310,0,0
0.002449550,0,1
0.002449590,1,1
0.002449854,1,0
0.002455070,0,0
0.002461340,0,1
0.002461350,1,1
0.002461644,1,0
0.002466830,0,0
0.002473084,0,1
0.002473110,1,1
0.002473388,1,0
0.002478590,0,0
0.002484870,1,0
0.002484916,1,1
0.002485218,1,0
0.002490352,0,0
0.002496586,0,1
0.002496632,1,1
0.002496890,1,0
0.002502112,0,0
0.002508392,1,0
0.002508400,1,1
0.002508704,1,0
0.002513872,0,0
0.002520116,0,1
0.002520152,1,1
0.002520420,1,0
0.002525632,0,0
0.002531872,0,1
0.002531912,1,1
0.002532176,1,0
0.002537392,0,0
0.002543652,0,1
0.002543672,1,1
0.002543956,1,0
0.002549152,0,0
0.002555408,0,1
0.002555434,1,1
0.002555712,1,0
0.002560914,0,0
0.002567194,1,0
0.002567212,1,1
0.002567516,1,0
0.002572674,0,0
0.002578922,0,1
0.002578954,1,1
0.002579226,1,0
0.002584434,0,0
0.002590714,1,0
0.002590844,1,1
0.002591146,1,0
0.002596194,0,0
0.002602428,0,1
0.002602474,1,1
0.002602732,1,0
0.002607954,0,0
0.002614234,1,0
0.002614298,1,1
0.002614602,1,0
0.002619714,0,0
0.002625950,0,1
0.002625994,1,1
0.002626252,1,0
0.002631474,0,0
0.002637756,1,0
0.002637770,1,1
0.002638074,1,0
0.002643236,0,0
0.002649516,1,0
0.002649524,1,1
0.002649828,1,0
0.002654996,0,0
0.002661270,0,1
0.002661276,1,1
0.002661574,1,0
0.002666756,0,0
0.002673036,1,0
0.002673130,1,1
0.002673434,1,0
0.002678516,0,0
0.002684796,1,0
0.002684800,1,1
0.002685104,1,0
0.002690276,0,0
0.002696556,1,0
0.002696760,1,1
0.002697064,1,0
0.002702036,0,0
0.002708272,0,1
0.002708316,1,1
0.002708574,1,0
0.002713796,0,0
0.002720078,1,0
0.002720156,1,1
0.002720460,1,0
0.002725558,0,0
0.002731812,0,1
0.002731838,1,1
0.002732116,1,0
0.002737318,0,0
0.002743582,0,1
0.002743598,1,1
0.002743886,1,0
0.002749078,0,0
0.002755348,0,1
0.002755358,1,1
0.002755652,1,0
0.002760838,0,0
0.002767092,0,1
0.002767118,1,1
0.002767396,1,0
0.002772598,0,0
0.002778880,1,0
0.002778884,1,1
0.002779188,1,0
0.002784360,0,0
0.002790624,0,1
0.002790640,1,1
0.002790928,1,0
0.002796120,0,0
0.002802400,1,0
0.002802404,1,1
0.002802708,1,0
0.002807880,0,0
0.002814114,0,1
0.002814160,1,1
0.002814418,1,0
0.002819640,0,0
0.002825920,1,0
0.002825974,1,1
0.002826278,1,0
0.002831400,0,0
0.002837654,0,1
0.002837680,1,1
0.002837958,1,0
0.002843160,0,0
0.002849416,0,1
0.002849440,1,1
0.002849718,1,0
0.002854920,0,0
0.002861196,0,1
0.002861200,1,1
0.002861500,1,0
0.002866680,0,0
0.002872962,1,0
0.002872970,1,1
0.002873274,1,0
0.002878442,0,0
0.002884696,0,1
0.002884722,1,1
0.002885000,1,0
0.002890202,0,0
0.002896482,1,0
0.002896522,1,1
0.002896826,1,0
0.002901962,0,0
0.002908196,0,1
0.002908242,1,1
0.002908500,1,0
0.002913722,0,0
0.002919956,0,1
0.002920002,1,1
0.002920260,1,0
0.002925482,0,0
0.002931736,0,1
0.002931762,1,1
0.002932040,1,0
0.002937242,0,0
0.002943498,0,1
0.002943524,1,1
0.002943802,1,0
0.002949004,0,0
0.002955284,1,0
0.002955288,1,1
0.002955592,1,0
0.002960764,0,0
0.002967028,0,1
0.002967044,1,1
0.002967332,1,0
0.002972524,0,0
0.002978804,1,0
0.002978978,1,1
0.002979282,1,0
0.002984284,0,0
0.002990518,0,1
0.002990564,1,1
0.002990822,1,0
0.002996044,0,0
0.003002324,1,0
0.003002394,1,1
0.003002698,1,0
0.003007804,0,0
0.003014040,0,1
0.003014086,1,1
0.003014344,1,0
0.003019564,0,0
0.003025830,0,1
0.003025846,1,1
0.003026134,1,0
0.003031326,0,0
0.003037594,0,1
0.003037606,1,1
0.003037898,1,0
0.003043086,0,0
0.003049340,0,1
0.003049366,1,1
0.003049644,1,0
0.003054846,0,0
0.003061126,1,0
0.003061200,1,1
0.003061504,1,0
0.003066606,0,0
0.003072886,1,0
0.003072896,1,1
0.003073200,1,0
0.003078366,0,0
0.003084646,1,0
0.003084660,1,1
0.003084964,1,0
0.003090126,0,0
0.003096362,0,1
0.003096408,1,1
0.003096666,1,0
0.003101886,0,0
0.003108168,1,0
0.003108188,1,1
0.003108490,1,0
0.003113648,0,0
0.003119892,0,1
0.003119928,1,1
0.003120196,1,0
0.003125408,0,0
0.003131632,0,1
0.003131688,1,1
0.003131936,1,0
0.003137168,0,0
0.003143432,0,1
0.003143448,1,1
0.003143736,1,0
0.003148928,0,0
0.003155184,0,1
0.003155208,1,1
0.003155486,1,0
0.003160688,0,0
0.003166968,1,0
0.003166998,1,1
0.003167302,1,0
0.003172450,0,0
0.003178698,0,1
0.003178730,1,1
0.003179002,1,0
0.003184210,0,0
0.003190490,1,0
0.003190648,1,1
0.003190952,1,0
0.003195970,0,0
0.003202204,0,1
0.003202250,1,1
0.003202508,1,0
0.003207730,0,0
0.003213970,0,1
0.003214010,1,1
0.003214274,1,0
0.003219490,0,0
0.003225760,0,1
0.003225770,1,1
0.003226064,1,0
0.003231250,0,0
0.003237506,0,1
0.003237530,1,1
0.003237808,1,0
0.003243010,0,0
0.003249292,1,0
0.003249296,1,1
0.003249600,1,0
0.003254772,0,0
0.003261010,0,1
0.003261052,1,1
0.003261314,1,0
0.003266532,0,0
0.003272812,1,0
0.003272820,1,1
0.003273124,1,0
0.003278292,0,0
0.003284536,0,1
0.003284572,1,1
0.003284840,1,0
0.003290052,0,0
0.003296332,0,1
0.003296334,1,1
0.003296636,1,0
0.003301812,0,0
0.003308072,0,1
0.003308094,1,1
0.003308376,1,0
0.003313572,0,0
0.003319828,0,1
0.003319854,1,1
0.003320132,1,0
0.003325334,0,0
0.003331614,1,0
0.003331668,1,1
0.003331972,1,0
0.003337094,0,0
0.003343344,0,1
0.003343374,1,1
0.003343646,1,0
0.003348854,0,0
0.003355134,1,0
0.003355238,1,1
0.003355542,1,0
0.003360614,0,0
0.003366848,0,1
0.003366894,1,1
0.003367152,1,0
0.003372374,0,0
0.003378618,0,1
0.003378654,1,1
0.003378922,1,0
0.003384136,0,0
0.003390374,0,1
0.003390416,1,1
0.003390678,1,0
0.003395894,0,0
0.003402150,0,1
0.003402176,1,1
0.003402454,1,0
0.003407656,0,0
0.003413936,1,0
0.003413960,1,1
0.003414264,1,0
0.003419416,0,0
0.003425650,0,1
0.003425696,1,1
0.003425954,1,0
0.003431176,0,0
0.003437456,1,0
0.003437466,1,1
0.003437770,1,0
0.003442936,0,0
0.003449190,0,1
0.003449216,1,1
0.003449494,1,0
0.003454696,0,0
0.003460936,0,1
0.003460976,1,1
0.003461240,1,0
0.003466456,0,0
0.003472726,0,1
0.003472736,1,1
0.003473030,1,0
0.003478218,0,0
0.003484472,0,1
0.003484498,1,1
0.003484776,1,0
0.003489978,0,0
0.003496258,1,0
0.003496318,1,1
0.003496620,1,0
0.003501738,0,0
0.003507988,0,1
0.003508018,1,1
0.003508292,1,0
0.003513498,0,0
0.003519778,1,0
0.003519908,1,1
0.003520212,1,0
0.003525258,0,0
0.003531492,0,1
0.003531538,1,1
0.003531796,1,0
0.003537018,0,0
0.003543278,0,1
0.003543300,1,1
0.003543582,1,0
0.003548778,0,0
0.003555034,0,1
0.003555060,1,1
0.003555338,1,0
0.003560540,0,0
0.003566820,1,1
0.003567122,1,0
0.003572300,0,0
0.003578580,1,0
0.003578610,1,1
0.003578914,1,0
0.003584060,0,0
0.003590324,0,1
0.003590340,1,1
0.003590628,1,0
0.003595820,0,0
0.003602100,1,0
0.003602290,1,1
0.003602594,1,0
0.003607580,0,0
0.003613840,0,1
0.003613862,1,1
0.003614144,1,0
0.003619340,0,0
0.003625622,1,0
0.003625726,1,1
0.003626030,1,0
0.003631102,0,0
0.003637360,0,1
0.003637382,1,1
0.003637664,1,0
0.003642862,0,0
0.003649142,1,0
0.003649150,1,1
0.003649454,1,0
0.003654622,0,0
0.003660902,1,1
0.003661206,1,0
0.003666382,0,0
0.003672642,0,1
0.003672662,1,1
0.003672946,1,0
0.003678142,0,0
0.003684412,0,1
0.003684422,1,1
0.003684716,1,0
0.003689902,0,0
0.003696184,1,0
0.003696202,1,1
0.003696506,1,0
