Time [s],Channel 0,Channel 1
0.000000000,0,1
0.000002478,0,0
0.000002728,1,0
0.000008358,0,0
0.000008608,0,1
0.000014238,0,0
0.000014488,1,0
0.000020118,0,0
0.000020368,0,1
0.000025998,0,0
0.000026248,1,0
0.000031878,0,0
0.000032128,0,1
0.000037758,0,0
0.000038008,1,0
0.000043638,0,0
0.000043890,0,1
0.000049518,0,0
0.000049768,1,0
0.000055398,0,0
0.000055650,0,1
0.000061278,0,0
0.000061528,1,0
0.000067158,0,0
0.000067410,0,1
0.000073038,0,0
0.000073290,1,0
0.000078920,0,0
0.000079170,0,1
0.000084800,0,0
0.000085050,1,0
0.000090680,0,0
0.000090930,0,1
0.000096560,0,0
0.000096810,1,0
0.000102440,0,0
0.000102690,0,1
0.000108320,0,0
0.000108570,1,0
0.000114200,0,0
0.000114450,0,1
0.000120080,0,0
0.000120330,1,0
0.000125960,0,0
0.000126210,0,1
0.000131840,0,0
0.000132090,1,0
0.000137720,0,0
0.000137972,0,1
0.000143600,0,0
0.000143850,1,0
0.000149480,0,0
0.000149732,0,1
0.000155360,0,0
0.000155612,1,0
0.000161240,0,0
0.000161492,0,1
0.000167122,0,0
0.000167372,1,0
0.000173002,0,0
0.000173252,0,1
0.000178882,0,0
0.000179132,1,0
0.000184762,0,0
0.000185012,0,1
0.000190642,0,0
0.000190892,1,0
0.000196522,0,0
0.000196772,0,1
0.000202402,0,0
0.000202652,1,0
0.000208282,0,0
0.000208532,0,1
0.000214162,0,0
0.000214412,1,0
0.000220042,0,0
0.000220294,0,1
0.000225922,0,0
0.000226174,1,0
0.000231802,0,0
0.000232054,0,1
0.000237684,0,0
0.000237934,1,0
0.000243564,0,0
0.000243814,0,1
0.000249444,0,0
0.000249694,1,0
0.000255324,0,0
0.000255574,0,1
0.000261204,0,0
0.000261454,1,0
0.000267084,0,0
0.000267334,0,1
0.000272964,0,0
0.000273214,1,0
0.000278844,0,0
0.000279094,0,1
0.000284724,0,0
0.000284974,1,0
0.000290604,0,0
0.000290854,0,1
0.000296484,0,0
0.000296734,1,0
0.000302364,0,0
0.000302616,0,1
0.000308244,0,0
0.000308494,1,0
0.000314124,0,0
0.000314376,0,1
0.000320004,0,0
0.000320254,1,0
0.000325884,0,0
0.000326136,0,1
0.000331766,0,0
0.000332016,1,0
0.000337646,0,0
0.000337896,0,1
0.000343526,0,0
0.000343776,1,0
0.000349406,0,0
0.000349656,0,1
0.000355286,0,0
0.000355536,1,0
0.000361166,0,0
0.000361416,0,1
0.000367046,0,0
0.000367296,1,0
0.000372926,0,0
0.000373176,0,1
0.000378806,0,0
0.000379056,1,0
0.000384686,0,0
0.000384936,0,1
0.000390566,0,0
0.000390818,1,0
0.000396446,0,0
0.000396698,0,1
0.000402326,0,0
0.000402578,1,0
0.000408206,0,0
0.000408458,0,1
0.000414088,0,0
0.000414338,1,0
0.000419968,0,0
0.000420218,0,1
0.000425848,0,0
0.000426098,1,0
0.000431728,0,0
0.000431978,0,1
0.000437608,0,0
0.000437858,1,0
0.000443488,0,0
0.000443738,0,1
0.000449368,0,0
0.000449618,1,0
0.000455248,0,0
0.000455500,0,1
0.000461128,0,0
0.000461378,1,0
0.000467008,0,0
0.000467260,0,1
0.000472888,0,0
0.000473138,1,0
0.000478768,0,0
0.000479020,0,1
0.000484650,0,0
0.000484900,1,0
0.000490530,0,0
0.000490780,0,1
0.000496410,0,0
0.000496660,1,0
0.000502290,0,0
0.000502540,0,1
0.000508170,0,0
0.000508420,1,0
0.000514050,0,0
0.000514300,0,1
0.000519930,0,0
0.000520180,1,0
0.000525810,0,0
0.000526060,0,1
0.000531690,0,0
0.000531940,1,0
0.000537570,0,0
0.000537822,0,1
0.000543450,0,0
0.000543702,1,0
0.000549330,0,0
0.000549582,0,1
0.000555210,0,0
0.000555462,1,0
0.000561092,0,0
0.000561342,0,1
0.000566972,0,0
0.000567222,1,0
0.000572852,0,0
0.000573102,0,1
0.000578732,0,0
0.000578982,1,0
0.000584612,0,0
0.000584862,0,1
0.000590492,0,0
0.000590742,1,0
0.000596372,0,0
0.000596622,0,1
0.000602252,0,0
0.000602502,1,0
0.000608132,0,0
0.000608382,0,1
0.000614012,0,0
0.000614262,1,0
0.000619892,0,0
0.000620142,0,1
0.000625772,0,0
0.000626022,1,0
0.000631652,0,0
0.000631904,0,1
0.000637534,0,0
0.000637784,1,0
0.000643414,0,0
0.000643664,0,1
0.000649294,0,0
0.000649544,1,0
0.000655174,0,0
0.000655424,0,1
0.000661054,0,0
0.000661304,1,0
0.000666934,0,0
0.000667184,0,1
0.000672814,0,0
0.000673064,1,0
0.000678694,0,0
0.000678944,0,1
0.000684574,0,0
0.000684824,1,0
0.000690454,0,0
0.000690704,0,1
0.000696334,0,0
0.000696584,1,0
0.000702214,0,0
0.000702466,0,1
0.000708094,0,0
0.000708344,1,0
0.000713974,0,0
0.000714226,0,1
0.000719854,0,0
0.000720104,1,0
0.000725734,0,0
0.000725986,0,1
0.000731616,0,0
0.000731866,1,0
0.000737496,0,0
0.000737746,0,1
0.000743376,0,0
0.000743626,1,0
0.000749256,0,0
0.000749506,0,1
0.000755136,0,0
0.000755386,1,0
0.000761016,0,0
0.000761266,0,1
0.000766896,0,0
0.000767146,1,0
0.000772776,0,0
0.000773028,0,1
0.000778656,0,0
0.000778906,1,0
0.000784536,0,0
0.000784788,0,1
0.000790416,0,0
0.000790666,1,0
0.000796296,0,0
0.000796548,0,1
0.000802176,0,0
0.000802428,1,0
0.000808056,0,0
0.000808308,0,1
0.000813938,0,0
0.000814188,1,0
0.000819818,0,0
0.000820068,0,1
0.000825698,0,0
0.000825948,1,0
0.000831578,0,0
0.000831828,0,1
0.000837458,0,0
0.000837708,1,0
0.000843338,0,0
0.000843588,0,1
0.000849218,0,0
0.000849468,1,0
0.000855098,0,0
0.000855348,0,1
0.000860978,0,0
0.000861228,1,0
0.000866858,0,0
0.000867110,0,1
0.000872738,0,0
0.000872990,1,0
0.000878618,0,0
0.000878870,0,1
0.000884498,0,0
0.000884750,1,0
0.000890378,0,0
0.000890630,0,1
0.000896260,0,0
0.000896510,1,0
0.000902140,0,0
0.000902390,0,1
0.000908020,0,0
0.000908270,1,0
0.000913900,0,0
0.000914150,0,1
0.000919780,0,0
0.000920030,1,0
0.000925660,0,0
0.000925910,0,1
0.000931540,0,0
0.000931790,1,0
0.000937420,0,0
0.000937672,0,1
0.000943300,0,0
0.000943550,1,0
0.000949180,0,0
0.000949432,0,1
0.000955060,0,0
0.000955310,1,0
0.000960940,0,0
0.000961192,0,1
0.000966822,0,0
0.000967072,1,0
0.000972702,0,0
0.000972952,0,1
0.000978582,0,0
0.000978832,1,0
0.000984462,0,0
0.000984712,0,1
0.000990342,0,0
0.000990592,1,0
0.000996222,0,0
0.000996472,0,1
0.001002102,0,0
0.001002352,1,0
0.001007982,0,0
0.001008234,0,1
0.001013862,0,0
0.001014112,1,0
0.001019742,0,0
0.001019994,0,1
0.001025622,0,0
0.001025872,1,0
0.001031502,0,0
0.001031754,0,1
0.001037384,0,0
0.001037634,1,0
0.001043264,0,0
0.001043514,0,1
0.001049144,0,0
0.001049394,1,0
0.001055024,0,0
0.001055274,0,1
0.001060904,0,0
0.001061154,1,0
0.001066784,0,0
0.001067034,0,1
0.001072664,0,0
0.001072914,1,0
0.001078544,0,0
0.001078794,0,1
0.001084424,0,0
0.001084674,1,0
0.001090304,0,0
0.001090554,0,1
0.001096184,0,0
0.001096434,1,0
0.001102064,0,0
0.001102316,0,1
0.001107944,0,0
0.001108194,1,0
0.001113824,0,0
0.001114076,0,1
0.001119704,0,0
0.001119956,1,0
0.001125584,0,0
0.001125836,0,1
0.001131466,0,0
0.001131716,1,0
0.001137346,0,0
0.001137596,0,1
0.001143226,0,0
0.001143476,1,0
0.001149106,0,0
0.001149356,0,1
0.001154986,0,0
0.001155236,1,0
0.001160866,0,0
0.001161116,0,1
0.001166746,0,0
0.001166996,1,0
0.001172626,0,0
0.001172878,0,1
0.001178506,0,0
0.001178756,1,0
0.001184386,0,0
0.001184636,0,1
0.001190266,0,0
0.001190516,1,0
0.001196146,0,0
0.001196398,0,1
0.001202028,0,0
0.001202278,1,0
0.001207908,0,0
0.001208158,0,1
0.001213788,0,0
0.001214038,1,0
0.001219668,0,0
0.001219918,0,1
0.001225548,0,0
0.001225798,1,0
0.001231428,0,0
0.001231678,0,1
0.001237308,0,0
0.001237558,1,0
0.001243188,0,0
0.001243438,0,1
0.001249068,0,0
0.001249318,1,0
0.001254948,0,0
0.001255198,0,1
0.001260828,0,0
0.001261078,1,0
0.001266708,0,0
0.001266960,0,1
0.001272588,0,0
0.001272838,1,0
0.001278468,0,0
0.001278720,0,1
0.001284350,0,0
0.001284600,1,0
0.001290230,0,0
0.001290480,0,1
0.001296110,0,0
0.001296360,1,0
0.001301990,0,0
0.001302240,0,1
0.001307870,0,0
0.001308120,1,0
0.001313750,0,0
0.001314000,0,1
0.001319630,0,0
0.001319880,1,0
0.001325510,0,0
0.001325760,0,1
0.001331390,0,0
0.001331640,1,0
0.001337270,0,0
0.001337520,0,1
0.001343150,0,0
0.001343400,1,0
0.001349030,0,0
0.001349282,0,1
0.001354910,0,0
0.001355160,1,0
0.001360790,0,0
0.001361042,0,1
0.001366672,0,0
0.001366922,1,0
0.001372552,0,0
0.001372802,0,1
0.001378432,0,0
0.001378682,1,0
0.001384312,0,0
0.001384562,0,1
0.001390192,0,0
0.001390442,1,0
0.001396072,0,0
0.001396322,0,1
0.001401952,0,0
0.001402202,1,0
0.001407832,0,0
0.001408082,0,1
0.001413712,0,0
0.001413962,1,0
0.001419592,0,0
0.001419842,0,1
0.001425472,0,0
0.001425722,1,0
0.001431352,0,0
0.001431604,0,1
0.001437232,0,0
0.001437484,1,0
0.001443112,0,0
0.001443364,0,1
0.001448994,0,0
0.001449244,1,0
0.001454874,0,0
0.001455124,0,1
0.001460754,0,0
0.001461004,1,0
0.001466634,0,0
0.001466884,0,1
0.001472514,0,0
0.001472764,1,0
0.001478394,0,0
0.001478644,0,1
0.001484274,0,0
0.001484524,1,0
0.001490154,0,0
0.001490406,0,1
0.001496034,0,0
0.001496284,1,0
0.001501914,0,0
0.001502166,0,1
0.001507794,0,0
0.001508044,1,0
0.001513674,0,0
0.001513926,0,1
0.001519556,0,0
0.001519806,1,0
0.001525436,0,0
0.001525686,0,1
0.001531316,0,0
0.001531566,1,0
0.001537196,0,0
0.001537446,0,1
0.001543076,0,0
0.001543326,1,0
0.001548956,0,0
0.001549206,0,1
0.001554836,0,0
0.001555086,1,0
0.001560716,0,0
0.001560966,0,1
0.001566596,0,0
0.001566846,1,0
0.001572476,0,0
0.001572728,0,1
0.001578356,0,0
0.001578606,1,0
0.001584236,0,0
0.001584486,0,1
0.001590116,0,0
0.001590366,1,0
0.001595996,0,0
0.001596248,0,1
0.001601878,0,0
0.001602128,1,0
0.001607758,0,0
0.001608008,0,1
0.001613638,0,0
0.001613888,1,0
0.001619518,0,0
0.001619768,0,1
0.001625398,0,0
0.001625648,1,0
0.001631278,0,0
0.001631528,0,1
0.001637158,0,0
0.001637408,1,0
0.001643038,0,0
0.001643288,0,1
0.001648918,0,0
0.001649168,1,0
0.001654798,0,0
0.001655050,0,1
0.001660678,0,0
0.001660928,1,0
0.001666558,0,0
0.001666810,0,1
0.001672438,0,0
0.001672688,1,0
0.001678318,0,0
0.001678570,0,1
0.001684200,0,0
0.001684450,1,0
0.001690080,0,0
0.001690330,0,1
0.001695960,0,0
0.001696210,1,0
0.001701840,0,0
0.001702090,0,1
0.001707720,0,0
0.001707970,1,0
0.001713600,0,0
0.001713850,0,1
0.001719480,0,0
0.001719730,1,0
0.001725360,0,0
0.001725610,0,1
0.001731240,0,0
0.001731490,1,0
0.001737120,0,0
0.001737372,0,1
0.001743000,0,0
0.001743250,1,0
0.001748880,0,0
0.001749132,0,1
0.001754760,0,0
0.001755010,1,0
0.001760640,0,0
0.001760892,0,1
0.001766522,0,0
0.001766772,1,0
0.001772402,0,0
0.001772652,0,1
0.001778282,0,0
0.001778532,1,0
0.001784162,0,0
0.001784412,0,1
0.001790042,0,0
0.001790292,1,0
0.001795922,0,0
0.001796172,0,1
0.001801802,0,0
0.001802052,1,0
0.001807682,0,0
0.001807932,0,1
0.001813562,0,0
0.001813812,1,0
0.001819442,0,0
0.001819692,0,1
0.001825322,0,0
0.001825572,1,0
0.001831202,0,0
0.001831454,0,1
0.001837082,0,0
0.001837334,1,0
0.001842962,0,0
0.001843214,0,1
0.001848844,0,0
0.001849094,1,0
0.001854724,0,0
0.001854974,0,1
0.001860604,0,0
0.001860854,1,0
0.001866484,0,0
0.001866734,0,1
0.001872364,0,0
0.001872614,1,0
0.001878244,0,0
0.001878494,0,1
0.001884124,0,0
0.001884374,1,0
0.001890004,0,0
0.001890256,0,1
0.001895884,0,0
0.001896134,1,0
0.001901764,0,0
0.001902016,0,1
0.001907644,0,0
0.001907894,1,0
0.001913524,0,0
0.001913776,0,1
0.001919406,0,0
0.001919656,1,0
0.001925286,0,0
0.001925536,0,1
0.001931166,0,0
0.001931416,1,0
0.001937046,0,0
0.001937296,0,1
0.001942926,0,0
0.001943176,1,0
0.001948806,0,0
0.001949056,0,1
0.001954686,0,0
0.001954936,1,0
0.001960566,0,0
0.001960816,0,1
0.001966446,0,0
0.001966696,1,0
0.001972326,0,0
0.001972576,0,1
0.001978206,0,0
0.001978456,1,0
0.001984086,0,0
0.001984338,0,1
0.001989966,0,0
0.001990216,1,0
0.001995846,0,0
0.001996098,0,1
0.002001728,0,0
0.002001978,1,0
0.002007608,0,0
0.002007858,0,1
0.002013488,0,0
0.002013738,1,0
0.002019368,0,0
0.002019618,0,1
0.002025248,0,0
0.002025498,1,0
0.002031128,0,0
0.002031378,0,1
0.002037008,0,0
0.002037258,1,0
0.002042888,0,0
0.002043138,0,1
0.002048768,0,0
0.002049018,1,0
0.002054648,0,0
0.002054900,0,1
0.002060528,0,0
0.002060778,1,0
0.002066408,0,0
0.002066660,0,1
0.002072288,0,0
0.002072540,1,0
0.002078170,0,0
0.002078420,0,1
0.002084050,0,0
0.002084300,1,0
0.002089930,0,0
0.002090180,0,1
0.002095810,0,0
0.002096060,1,0
0.002101690,0,0
0.002101940,0,1
0.002107570,0,0
0.002107820,1,0
0.002113450,0,0
0.002113700,0,1
0.002119330,0,0
0.002119580,1,0
0.002125210,0,0
0.002125460,0,1
0.002131090,0,0
0.002131340,1,0
0.002136970,0,0
0.002137222,0,1
0.002142850,0,0
0.002143100,1,0
0.002148730,0,0
0.002148982,0,1
0.002154610,0,0
0.002154862,1,0
0.002160492,0,0
0.002160742,0,1
0.002166372,0,0
0.002166622,1,0
0.002172252,0,0
0.002172502,0,1
0.002178132,0,0
0.002178382,1,0
0.002184012,0,0
0.002184262,0,1
0.002189892,0,0
0.002190142,1,0
0.002195772,0,0
0.002196022,0,1
0.002201652,0,0
0.002201902,1,0
0.002207532,0,0
0.002207782,0,1
0.002213412,0,0
0.002213662,1,0
0.002219292,0,0
0.002219544,0,1
0.002225172,0,0
0.002225422,1,0
0.002231052,0,0
0.002231304,0,1
0.002236932,0,0
0.002237182,1,0
0.002242812,0,0
0.002243064,0,1
0.002248694,0,0
0.002248944,1,0
0.002254574,0,0
0.002254824,0,1
0.002260454,0,0
0.002260704,1,0
0.002266334,0,0
0.002266584,0,1
0.002272214,0,0
0.002272464,1,0
0.002278094,0,0
0.002278344,0,1
0.002283974,0,0
0.002284224,1,0
0.002289854,0,0
0.002290104,0,1
0.002295734,0,0
0.002295984,1,0
0.002301614,0,0
0.002301866,0,1
0.002307494,0,0
0.002307746,1,0
0.002313374,0,0
0.002313626,0,1
0.002319254,0,0
0.002319506,1,0
0.002325136,0,0
0.002325386,0,1
0.002331016,0,0
0.002331266,1,0
0.002336896,0,0
0.002337146,0,1
0.002342776,0,0
0.002343026,1,0
0.002348656,0,0
0.002348906,0,1
0.002354536,0,0
0.002354786,1,0
0.002360416,0,0
0.002360666,0,1
0.002366296,0,0
0.002366546,1,0
0.002372176,0,0
0.002372426,0,1
0.002378056,0,0
0.002378306,1,0
0.002383936,0,0
0.002384188,0,1
0.002389816,0,0
0.002390068,1,0
0.002395696,0,0
0.002395948,0,1
0.002401578,0,0
0.002401828,1,0
0.002407458,0,0
0.002407708,0,1
0.002413338,0,0
0.002413588,1,0
0.002419218,0,0
0.002419468,0,1
0.002425098,0,0
0.002425348,1,0
0.002430978,0,0
0.002431228,0,1
0.002436858,0,0
0.002437108,1,0
0.002442738,0,0
0.002442988,0,1
0.002448618,0,0
0.002448868,1,0
0.002454498,0,0
0.002454748,0,1
0.002460378,0,0
0.002460628,1,0
0.002466258,0,0
0.002466510,0,1
0.002472138,0,0
0.002472388,1,0
0.002478018,0,0
0.002478270,0,1
0.002483900,0,0
0.002484150,1,0
0.002489780,0,0
0.002490030,0,1
0.002495660,0,0
0.002495910,1,0
0.002501540,0,0
0.002501790,0,1
0.002507420,0,0
0.002507670,1,0
0.002513300,0,0
0.002513550,0,1
0.002519180,0,0
0.002519430,1,0
0.002525060,0,0
0.002525310,0,1
0.002530940,0,0
0.002531190,1,0
0.002536820,0,0
0.002537072,0,1
0.002542700,0,0
0.002542950,1,0
0.002548580,0,0
0.002548832,0,1
0.002554462,0,0
0.002554712,1,0
0.002560342,0,0
0.002560592,0,1
0.002566222,0,0
0.002566472,1,0
0.002572102,0,0
0.002572352,0,1
0.002577982,0,0
0.002578232,1,0
0.002583862,0,0
0.002584112,0,1
0.002589742,0,0
0.002589992,1,0
0.002595622,0,0
0.002595872,0,1
0.002601502,0,0
0.002601752,1,0
0.002607382,0,0
0.002607632,0,1
0.002613262,0,0
0.002613512,1,0
0.002619142,0,0
0.002619394,0,1
0.002625022,0,0
0.002625272,1,0
0.002630902,0,0
0.002631154,0,1
0.002636782,0,0
0.002637032,1,0
0.002642664,0,0
0.002642914,0,1
0.002648544,0,0
0.002648794,1,0
0.002654424,0,0
0.002654674,0,1
0.002660304,0,0
0.002660554,1,0
0.002666184,0,0
0.002666434,0,1
0.002672064,0,0
0.002672314,1,0
0.002677944,0,0
0.002678194,0,1
0.002683824,0,0
0.002684074,1,0
0.002689704,0,0
0.002689954,0,1
0.002695584,0,0
0.002695834,1,0
0.002701464,0,0
0.002701716,0,1
0.002707344,0,0
0.002707594,1,0
0.002713224,0,0
0.002713476,0,1
0.002719106,0,0
0.002719356,1,0
0.002724986,0,0
0.002725236,0,1
0.002730866,0,0
0.002731116,1,0
0.002736746,0,0
0.002736996,0,1
0.002742626,0,0
0.002742876,1,0
0.002748506,0,0
0.002748756,0,1
0.002754386,0,0
0.002754636,1,0
0.002760266,0,0
0.002760516,0,1
0.002766146,0,0
0.002766396,1,0
0.002772026,0,0
0.002772276,0,1
0.002777906,0,0
0.002778156,1,0
0.002783786,0,0
0.002784038,0,1
0.002789666,0,0
0.002789916,1,0
0.002795546,0,0
0.002795798,0,1
0.002801426,0,0
0.002801678,1,0
0.002807306,0,0
0.002807558,0,1
0.002813188,0,0
0.002813438,1,0
0.002819068,0,0
0.002819318,0,1
0.002824948,0,0
0.002825198,1,0
0.002830828,0,0
0.002831078,0,1
0.002836708,0,0
0.002836958,1,0
0.002842588,0,0
0.002842838,0,1
0.002848468,0,0
0.002848718,1,0
0.002854348,0,0
0.002854600,0,1
0.002860228,0,0
0.002860478,1,0
0.002866108,0,0
0.002866360,0,1
0.002871988,0,0
0.002872240,1,0
0.002877868,0,0
0.002878120,0,1
0.002883750,0,0
0.002884000,1,0
0.002889630,0,0
0.002889880,0,1
0.002895510,0,0
0.002895760,1,0
0.002901390,0,0
0.002901640,0,1
0.002907270,0,0
0.002907520,1,0
0.002913150,0,0
0.002913400,0,1
0.002919030,0,0
0.002919280,1,0
0.002924910,0,0
0.002925160,0,1
0.002930790,0,0
0.002931040,1,0
0.002936670,0,0
0.002936922,0,1
0.002942550,0,0
0.002942800,1,0
0.002948430,0,0
0.002948682,0,1
0.002954310,0,0
0.002954562,1,0
0.002960192,0,0
0.002960442,0,1
0.002966072,0,0
0.002966322,1,0
0.002971952,0,0
0.002972202,0,1
0.002977832,0,0
0.002978082,1,0
0.002983712,0,0
0.002983962,0,1
0.002989592,0,0
0.002989842,1,0
0.002995472,0,0
0.002995722,0,1
0.003001352,0,0
0.003001602,1,0
0.003007232,0,0
0.003007482,0,1
0.003013112,0,0
0.003013362,1,0
0.003018992,0,0
0.003019244,0,1
0.003024872,0,0
0.003025122,1,0
0.003030752,0,0
0.003031004,0,1
0.003036634,0,0
0.003036884,1,0
0.003042514,0,0
0.003042764,0,1
0.003048394,0,0
0.003048644,1,0
0.003054274,0,0
0.003054524,0,1
0.003060154,0,0
0.003060404,1,0
0.003066034,0,0
0.003066284,0,1
0.003071914,0,0
0.003072164,1,0
0.003077794,0,0
0.003078044,0,1
0.003083674,0,0
0.003083924,1,0
0.003089554,0,0
0.003089804,0,1
0.003095434,0,0
0.003095684,1,0
0.003101314,0,0
0.003101566,0,1
0.003107194,0,0
0.003107444,1,0
0.003113074,0,0
0.003113326,0,1
0.003118956,0,0
0.003119206,1,0
0.003124836,0,0
0.003125086,0,1
0.003130716,0,0
0.003130966,1,0
0.003136596,0,0
0.003136846,0,1
0.003142476,0,0
0.003142726,1,0
0.003148356,0,0
0.003148606,0,1
0.003154236,0,0
0.003154486,1,0
0.003160116,0,0
0.003160366,0,1
0.003165996,0,0
0.003166246,1,0
0.003171876,0,0
0.003172128,0,1
0.003177756,0,0
0.003178006,1,0
0.003183636,0,0
0.003183888,0,1
0.003189516,0,0
0.003189766,1,0
0.003195396,0,0
0.003195648,0,1
0.003201278,0,0
0.003201528,1,0
0.003207158,0,0
0.003207408,0,1
0.003213038,0,0
0.003213288,1,0
0.003218918,0,0
0.003219168,0,1
0.003224798,0,0
0.003225048,1,0
0.003230678,0,0
0.003230930,0,1
0.003236558,0,0
0.003236808,1,0
0.003242438,0,0
0.003242688,0,1
0.003248318,0,0
0.003248568,1,0
0.003254198,0,0
0.003254450,0,1
0.003260078,0,0
0.003260328,1,0
0.003265958,0,0
0.003266210,0,1
0.003271838,0,0
0.003272088,1,0
0.003277718,0,0
0.003277970,0,1
0.003283600,0,0
0.003283850,1,0
0.003289480,0,0
0.003289730,0,1
0.003295360,0,0
0.003295610,1,0
0.003301240,0,0
0.003301490,0,1
0.003307120,0,0
0.003307370,1,0
0.003313000,0,0
0.003313250,0,1
0.003318880,0,0
0.003319130,1,0
0.003324760,0,0
0.003325010,0,1
0.003330640,0,0
0.003330890,1,0
0.003336520,0,0
0.003336770,0,1
0.003342400,0,0
0.003342650,1,0
0.003348280,0,0
0.003348532,0,1
0.003354162,0,0
0.003354412,1,0
0.003360042,0,0
0.003360292,0,1
0.003365922,0,0
0.003366172,1,0
0.003371802,0,0
0.003372052,0,1
0.003377682,0,0
0.003377932,1,0
0.003383562,0,0
0.003383812,0,1
0.003389442,0,0
0.003389692,1,0
0.003395322,0,0
0.003395572,0,1
0.003401202,0,0
0.003401452,1,0
0.003407082,0,0
0.003407332,0,1
0.003412962,0,0
0.003413212,1,0
0.003418842,0,0
0.003419094,0,1
0.003424722,0,0
0.003424972,1,0
0.003430602,0,0
0.003430854,0,1
0.003436482,0,0
0.003436734,1,0
0.003442362,0,0
0.003442614,0,1
0.003448244,0,0
0.003448494,1,0
0.003454124,0,0
0.003454374,0,1
0.003460004,0,0
0.003460254,1,0
0.003465884,0,0
0.003466134,0,1
0.003471764,0,0
0.003472014,1,0
0.003477644,0,0
0.003477894,0,1
0.003483524,0,0
0.003483774,1,0
0.003489404,0,0
0.003489656,0,1
0.003495284,0,0
0.003495534,1,0
0.003501164,0,0
0.003501416,0,1
0.003507044,0,0
0.003507294,1,0
0.003512924,0,0
0.003513176,0,1
0.003518804,0,0
0.003519054,1,0
0.003524684,0,0
0.003524936,0,1
0.003530566,0,0
0.003530816,1,0
0.003536446,0,0
0.003536696,0,1
0.003542326,0,0
0.003542576,1,0
0.003548206,0,0
0.003548456,0,1
0.003554086,0,0
0.003554336,1,0
0.003559966,0,0
0.003560216,0,1
0.003565846,0,0
0.003566096,1,0
0.003571726,0,0
0.003571978,0,1
0.003577606,0,0
0.003577856,1,0
0.003583486,0,0
0.003583738,0,1
0.003589368,0,0
0.003589618,1,0
0.003595246,0,0
0.003595498,0,1
0.003601128,0,0
0.003601378,1,0
0.003607008,0,0
0.003607258,0,1
0.003612888,0,0
0.003613138,1,0
0.003618768,0,0
0.003619018,0,1
0.003624648,0,0
0.003624898,1,0
0.003630528,0,0
0.003630778,0,1
0.003636408,0,0
0.003636658,1,0
0.003642288,0,0
0.003642538,0,1
0.003648168,0,0
0.003648418,1,0
0.003654048,0,0
0.003654298,0,1
0.003659928,0,0
0.003660178,1,0
0.003665808,0,0
